date Tue Oct 6 20:42:24 2026
base hex  timestamps absolute
no internal events logged
// TOSUN libLog V2022.10.6.794
   118.442614 1  0CF00400x       Rx   d 8 FF FF FF 00 00 FF FF FF 
   118.447613 1  0CF00400x       Rx   d 8 FF FF FF 00 00 FF FF FF 
   118.452605 1  0CF00400x       Rx   d 8 FF FF FF 00 00 FF FF FF 
   118.457604 1  0CF00400x       Rx   d 8 FF FF FF 00 00 FF FF FF 
   118.462608 1  0CF00400x       Rx   d 8 FF FF FF 00 00 FF FF FF 
   118.467608 1  0CF00400x       Rx   d 8 FF FF FF 00 00 FF FF FF 
   118.472611 1  0CF00400x       Rx   d 8 FF FF FF 00 00 FF FF FF 
   118.477599 1  0CF00400x       Rx   d 8 FF FF FF 00 00 FF FF FF 
   118.482602 1  0CF00400x       Rx   d 8 FF FF FF 00 00 FF FF FF 
   118.487602 1  0CF00400x       Rx   d 8 FF FF FF 00 00 FF FF FF 
   118.492601 1  0CF00400x       Rx   d 8 FF FF FF 00 00 FF FF FF 
   118.497605 1  0CF00400x       Rx   d 8 FF FF FF 00 00 FF FF FF 
   118.502608 1  0CF00400x       Rx   d 8 FF FF FF 00 00 FF FF FF 
   118.507592 1  0CF00400x       Rx   d 8 FF FF FF 00 00 FF FF FF 
   118.512595 1  0CF00400x       Rx   d 8 FF FF FF 00 00 FF FF FF 
   118.517595 1  0CF00400x       Rx   d 8 FF FF FF 00 00 FF FF FF 
   118.522595 1  0CF00400x       Rx   d 8 FF FF FF 00 00 FF FF FF 
   118.527594 1  0CF00400x       Rx   d 8 FF FF FF 00 00 FF FF FF 
   118.532593 1  0CF00400x       Rx   d 8 FF FF FF 00 00 FF FF FF 
   118.537593 1  0CF00400x       Rx   d 8 FF FF FF 00 00 FF FF FF 
   118.542593 1  0CF00400x       Rx   d 8 FF FF FF 00 00 FF FF FF 
   118.547592 1  0CF00400x       Rx   d 8 FF FF FF 00 00 FF FF FF 
   118.552591 1  0CF00400x       Rx   d 8 FF FF FF 00 00 FF FF FF 
   118.557591 1  0CF00400x       Rx   d 8 FF FF FF 00 00 FF FF FF 
   118.562587 1  0CF00400x       Rx   d 8 FF FF FF 00 00 FF FF FF 
   118.567586 1  0CF00400x       Rx   d 8 FF FF FF 00 00 FF FF FF 
   118.572586 1  0CF00400x       Rx   d 8 FF FF FF 00 00 FF FF FF 
   118.577585 1  0CF00400x       Rx   d 8 FF FF FF 00 00 FF FF FF 
   118.582586 1  0CF00400x       Rx   d 8 FF FF FF 00 00 FF FF FF 
   118.587585 1  0CF00400x       Rx   d 8 FF FF FF 00 00 FF FF FF 
   118.592585 1  0CF00400x       Rx   d 8 FF FF FF 00 00 FF FF FF 
   118.597584 1  0CF00400x       Rx   d 8 FF FF FF 00 00 FF FF FF 
   118.602584 1  0CF00400x       Rx   d 8 FF FF FF 00 00 FF FF FF 
   118.607584 1  0CF00400x       Rx   d 8 FF FF FF 00 00 FF FF FF 
   118.612583 1  0CF00400x       Rx   d 8 FF FF FF 00 00 FF FF FF 
   118.617582 1  0CF00400x       Rx   d 8 FF FF FF 00 00 FF FF FF 
   118.622582 1  0CF00400x       Rx   d 8 FF FF FF 00 00 FF FF FF 
   118.627581 1  0CF00400x       Rx   d 8 FF FF FF 00 00 FF FF FF 
   118.632581 1  0CF00400x       Rx   d 8 FF FF FF 00 00 FF FF FF 
   118.637581 1  0CF00400x       Rx   d 8 FF FF FF 00 00 FF FF FF 
   118.642580 1  0CF00400x       Rx   d 8 FF FF FF 00 00 FF FF FF 
   118.647580 1  0CF00400x       Rx   d 8 FF FF FF 00 00 FF FF FF 
   118.652575 1  0CF00400x       Rx   d 8 FF FF FF 00 00 FF FF FF 
   118.657579 1  0CF00400x       Rx   d 8 FF FF FF 00 00 FF FF FF 
   118.662574 1  0CF00400x       Rx   d 8 FF FF FF 00 00 FF FF FF 
   118.667574 1  0CF00400x       Rx   d 8 FF FF FF 00 00 FF FF FF 
   118.672573 1  0CF00400x       Rx   d 8 FF FF FF 00 00 FF FF FF 
   118.677573 1  0CF00400x       Rx   d 8 FF FF FF 00 00 FF FF FF 
   118.682572 1  0CF00400x       Rx   d 8 FF FF FF 00 00 FF FF FF 
   118.687568 1  0CF00400x       Rx   d 8 FF FF FF 00 00 FF FF FF 
   118.692567 1  0CF00400x       Rx   d 8 FF FF FF 00 00 FF FF FF 
   118.697571 1  0CF00400x       Rx   d 8 FF FF FF 00 00 FF FF FF 
   118.702571 1  0CF00400x       Rx   d 8 FF FF FF 00 00 FF FF FF 
   118.707570 1  0CF00400x       Rx   d 8 FF FF FF 00 00 FF FF FF 
   118.712566 1  0CF00400x       Rx   d 8 FF FF FF 00 00 FF FF FF 
   118.717565 1  0CF00400x       Rx   d 8 FF FF FF 00 00 FF FF FF 
   118.722565 1  0CF00400x       Rx   d 8 FF FF FF 00 00 FF FF FF 
   118.727564 1  0CF00400x       Rx   d 8 FF FF FF 00 00 FF FF FF 
   118.732564 1  0CF00400x       Rx   d 8 FF FF FF 00 00 FF FF FF 
   118.737564 1  0CF00400x       Rx   d 8 FF FF FF 00 00 FF FF FF 
   118.742563 1  0CF00400x       Rx   d 8 FF FF FF 00 00 FF FF FF 
   118.747562 1  0CF00400x       Rx   d 8 FF FF FF 00 00 FF FF FF 
   118.752562 1  0CF00400x       Rx   d 8 FF FF FF 00 00 FF FF FF 
   118.757561 1  0CF00400x       Rx   d 8 FF FF FF 00 00 FF FF FF 
   118.762561 1  0CF00400x       Rx   d 8 FF FF FF 00 00 FF FF FF 
   118.767561 1  0CF00400x       Rx   d 8 FF FF FF 00 00 FF FF FF 
   118.772560 1  0CF00400x       Rx   d 8 FF FF FF 00 00 FF FF FF 
   118.777560 1  0CF00400x       Rx   d 8 FF FF FF 00 00 FF FF FF 
   118.782559 1  0CF00400x       Rx   d 8 FF FF FF 00 00 FF FF FF 
   118.787559 1  0CF00400x       Rx   d 8 FF FF FF 00 00 FF FF FF 
   118.792558 1  0CF00400x       Rx   d 8 FF FF FF 00 00 FF FF FF 
   118.797558 1  0CF00400x       Rx   d 8 FF FF FF 00 00 FF FF FF 
   118.802557 1  0CF00400x       Rx   d 8 FF FF FF 00 00 FF FF FF 
   118.807557 1  0CF00400x       Rx   d 8 FF FF FF 00 00 FF FF FF 
   118.812549 1  0CF00400x       Rx   d 8 FF FF FF 00 00 FF FF FF 
   118.817552 1  0CF00400x       Rx   d 8 FF FF FF 00 00 FF FF FF 
   118.822551 1  0CF00400x       Rx   d 8 FF FF FF 00 00 FF FF FF 
   118.827551 1  0CF00400x       Rx   d 8 FF FF FF 00 00 FF FF FF 
   118.832551 1  0CF00400x       Rx   d 8 FF FF FF 00 00 FF FF FF 
   118.837546 1  0CF00400x       Rx   d 8 FF FF FF 00 00 FF FF FF 
   118.842545 1  0CF00400x       Rx   d 8 FF FF FF 00 00 FF FF FF 
   118.847545 1  0CF00400x       Rx   d 8 FF FF FF 00 00 FF FF FF 
   118.852544 1  0CF00400x       Rx   d 8 FF FF FF 00 00 FF FF FF 
   118.857544 1  0CF00400x       Rx   d 8 FF FF FF 00 00 FF FF FF 
   118.862548 1  0CF00400x       Rx   d 8 FF FF FF 00 00 FF FF FF 
   118.867547 1  0CF00400x       Rx   d 8 FF FF FF 00 00 FF FF FF 
   118.872543 1  0CF00400x       Rx   d 8 FF FF FF 00 00 FF FF FF 
   118.877542 1  0CF00400x       Rx   d 8 FF FF FF 00 00 FF FF FF 
   118.882542 1  0CF00400x       Rx   d 8 FF FF FF 00 00 FF FF FF 
   118.887541 1  0CF00400x       Rx   d 8 FF FF FF 00 00 FF FF FF 
   118.892541 1  0CF00400x       Rx   d 8 FF FF FF 00 00 FF FF FF 
   118.897541 1  0CF00400x       Rx   d 8 FF FF FF 00 00 FF FF FF 
   118.902540 1  0CF00400x       Rx   d 8 FF FF FF 00 00 FF FF FF 
   118.907539 1  0CF00400x       Rx   d 8 FF FF FF 00 00 FF FF FF 
   118.912539 1  0CF00400x       Rx   d 8 FF FF FF 00 00 FF FF FF 
   118.917539 1  0CF00400x       Rx   d 8 FF FF FF 00 00 FF FF FF 
   118.922538 1  0CF00400x       Rx   d 8 FF FF FF 00 00 FF FF FF 
   118.927538 1  0CF00400x       Rx   d 8 FF FF FF 00 00 FF FF FF 
   118.932537 1  0CF00400x       Rx   d 8 FF FF FF 00 00 FF FF FF 
   118.937533 1  0CF00400x       Rx   d 8 FF FF FF 00 00 FF FF FF 
   118.942532 1  0CF00400x       Rx   d 8 FF FF FF 00 00 FF FF FF 
   118.947532 1  0CF00400x       Rx   d 8 FF FF FF 00 00 FF FF FF 
   118.952531 1  0CF00400x       Rx   d 8 FF FF FF 00 00 FF FF FF 
   118.957531 1  0CF00400x       Rx   d 8 FF FF FF 00 00 FF FF FF 
   118.962530 1  0CF00400x       Rx   d 8 FF FF FF 00 00 FF FF FF 
   118.967530 1  0CF00400x       Rx   d 8 FF FF FF 00 00 FF FF FF 
   118.972529 1  0CF00400x       Rx   d 8 FF FF FF 00 00 FF FF FF 
   118.977529 1  0CF00400x       Rx   d 8 FF FF FF 00 00 FF FF FF 
   118.982528 1  0CF00400x       Rx   d 8 FF FF FF 00 00 FF FF FF 
   118.987528 1  0CF00400x       Rx   d 8 FF FF FF 00 00 FF FF FF 
   118.992527 1  0CF00400x       Rx   d 8 FF FF FF 00 00 FF FF FF 
   118.997527 1  0CF00400x       Rx   d 8 FF FF FF 00 00 FF FF FF 
   119.002527 1  0CF00400x       Rx   d 8 FF FF FF 00 00 FF FF FF 
   119.007526 1  0CF00400x       Rx   d 8 FF FF FF 00 00 FF FF FF 
   119.012526 1  0CF00400x       Rx   d 8 FF FF FF 00 00 FF FF FF 
   119.017525 1  0CF00400x       Rx   d 8 FF FF FF 00 00 FF FF FF 
   119.022525 1  0CF00400x       Rx   d 8 FF FF FF 00 00 FF FF FF 
   119.027524 1  0CF00400x       Rx   d 8 FF FF FF 00 00 FF FF FF 
   119.032520 1  0CF00400x       Rx   d 8 FF FF FF 00 00 FF FF FF 
   119.037519 1  0CF00400x       Rx   d 8 FF FF FF 00 00 FF FF FF 
   119.042519 1  0CF00400x       Rx   d 8 FF FF FF 00 00 FF FF FF 
   119.047518 1  0CF00400x       Rx   d 8 FF FF FF 00 00 FF FF FF 
   119.052518 1  0CF00400x       Rx   d 8 FF FF FF 00 00 FF FF FF 
   119.057517 1  0CF00400x       Rx   d 8 FF FF FF 00 00 FF FF FF 
   119.062513 1  0CF00400x       Rx   d 8 FF FF FF 00 00 FF FF FF 
   119.067517 1  0CF00400x       Rx   d 8 FF FF FF 00 00 FF FF FF 
   119.072517 1  0CF00400x       Rx   d 8 FF FF FF 00 00 FF FF FF 
   119.077513 1  0CF00400x       Rx   d 8 FF FF FF 00 00 FF FF FF 
   119.082512 1  0CF00400x       Rx   d 8 FF FF FF 00 00 FF FF FF 
   119.087512 1  0CF00400x       Rx   d 8 FF FF FF 00 00 FF FF FF 
   119.092511 1  0CF00400x       Rx   d 8 FF FF FF 00 00 FF FF FF 
   119.097511 1  0CF00400x       Rx   d 8 FF FF FF 00 00 FF FF FF 
   119.102511 1  0CF00400x       Rx   d 8 FF FF FF 00 00 FF FF FF 
   119.107510 1  0CF00400x       Rx   d 8 FF FF FF 00 00 FF FF FF 
   119.112509 1  0CF00400x       Rx   d 8 FF FF FF 00 00 FF FF FF 
   119.117509 1  0CF00400x       Rx   d 8 FF FF FF 00 00 FF FF FF 
   119.122508 1  0CF00400x       Rx   d 8 FF FF FF 00 00 FF FF FF 
   119.127508 1  0CF00400x       Rx   d 8 FF FF FF 00 00 FF FF FF 
   119.132507 1  0CF00400x       Rx   d 8 FF FF FF 00 00 FF FF FF 
   119.137507 1  0CF00400x       Rx   d 8 FF FF FF 00 00 FF FF FF 
   119.142506 1  0CF00400x       Rx   d 8 FF FF FF 00 00 FF FF FF 
   119.147506 1  0CF00400x       Rx   d 8 FF FF FF 00 00 FF FF FF 
   119.152506 1  0CF00400x       Rx   d 8 FF FF FF 00 00 FF FF FF 
   119.157505 1  0CF00400x       Rx   d 8 FF FF FF 00 00 FF FF FF 
   119.162505 1  0CF00400x       Rx   d 8 FF FF FF 00 00 FF FF FF 
   119.167504 1  0CF00400x       Rx   d 8 FF FF FF 00 00 FF FF FF 
   119.172504 1  0CF00400x       Rx   d 8 FF FF FF 00 00 FF FF FF 
   119.177504 1  0CF00400x       Rx   d 8 FF FF FF 00 00 FF FF FF 
   119.182503 1  0CF00400x       Rx   d 8 FF FF FF 00 00 FF FF FF 
   119.187494 1  0CF00400x       Rx   d 8 FF FF FF 00 00 FF FF FF 
   119.192498 1  0CF00400x       Rx   d 8 FF FF FF 00 00 FF FF FF 
   119.197497 1  0CF00400x       Rx   d 8 FF FF FF 00 00 FF FF FF 
   119.202497 1  0CF00400x       Rx   d 8 FF FF FF 00 00 FF FF FF 
   119.207496 1  0CF00400x       Rx   d 8 FF FF FF 00 00 FF FF FF 
   119.212496 1  0CF00400x       Rx   d 8 FF FF FF 00 00 FF FF FF 
   119.217495 1  0CF00400x       Rx   d 8 FF FF FF 00 00 FF FF FF 
   119.222495 1  0CF00400x       Rx   d 8 FF FF FF 00 00 FF FF FF 
   119.227491 1  0CF00400x       Rx   d 8 FF FF FF 00 00 FF FF FF 
   119.232490 1  0CF00400x       Rx   d 8 FF FF FF 00 00 FF FF FF 
   119.237490 1  0CF00400x       Rx   d 8 FF FF FF 00 00 FF FF FF 
   119.242489 1  0CF00400x       Rx   d 8 FF FF FF 00 00 FF FF FF 
   119.247489 1  0CF00400x       Rx   d 8 FF FF FF 00 00 FF FF FF 
   119.252489 1  0CF00400x       Rx   d 8 FF FF FF 00 00 FF FF FF 
   119.257488 1  0CF00400x       Rx   d 8 FF FF FF 00 00 FF FF FF 
   119.262491 1  0CF00400x       Rx   d 8 FF FF FF 00 00 FF FF FF 
   119.267491 1  0CF00400x       Rx   d 8 FF FF FF 00 00 FF FF FF 
   119.272487 1  0CF00400x       Rx   d 8 FF FF FF 00 00 FF FF FF 
   119.277486 1  0CF00400x       Rx   d 8 FF FF FF 00 00 FF FF FF 
   119.282486 1  0CF00400x       Rx   d 8 FF FF FF 00 00 FF FF FF 
   119.287485 1  0CF00400x       Rx   d 8 FF FF FF 00 00 FF FF FF 
   119.292484 1  0CF00400x       Rx   d 8 FF FF FF 00 00 FF FF FF 
   119.297484 1  0CF00400x       Rx   d 8 FF FF FF 00 00 FF FF FF 
   119.302484 1  0CF00400x       Rx   d 8 FF FF FF 00 00 FF FF FF 
   119.307483 1  0CF00400x       Rx   d 8 FF FF FF 00 00 FF FF FF 
   119.312479 1  0CF00400x       Rx   d 8 FF FF FF 00 00 FF FF FF 
   119.317478 1  0CF00400x       Rx   d 8 FF FF FF 00 00 FF FF FF 
   119.322478 1  0CF00400x       Rx   d 8 FF FF FF 00 00 FF FF FF 
   119.327477 1  0CF00400x       Rx   d 8 FF FF FF 00 00 FF FF FF 
   119.332477 1  0CF00400x       Rx   d 8 FF FF FF 00 00 FF FF FF 
   119.337476 1  0CF00400x       Rx   d 8 FF FF FF 00 00 FF FF FF 
   119.342476 1  0CF00400x       Rx   d 8 FF FF FF 00 00 FF FF FF 
   119.347476 1  0CF00400x       Rx   d 8 FF FF FF 00 00 FF FF FF 
   119.352475 1  0CF00400x       Rx   d 8 FF FF FF 00 00 FF FF FF 
   119.357475 1  0CF00400x       Rx   d 8 FF FF FF 00 00 FF FF FF 
   119.362474 1  0CF00400x       Rx   d 8 FF FF FF 00 00 FF FF FF 
   119.367473 1  0CF00400x       Rx   d 8 FF FF FF 00 00 FF FF FF 
   119.372473 1  0CF00400x       Rx   d 8 FF FF FF 00 00 FF FF FF 
   119.377473 1  0CF00400x       Rx   d 8 FF FF FF 00 00 FF FF FF 
   119.382472 1  0CF00400x       Rx   d 8 FF FF FF 00 00 FF FF FF 
   119.387472 1  0CF00400x       Rx   d 8 FF FF FF 00 00 FF FF FF 
   119.392471 1  0CF00400x       Rx   d 8 FF FF FF 00 00 FF FF FF 
   119.397471 1  0CF00400x       Rx   d 8 FF FF FF 00 00 FF FF FF 
   119.402470 1  0CF00400x       Rx   d 8 FF FF FF 00 00 FF FF FF 
   119.407470 1  0CF00400x       Rx   d 8 FF FF FF 00 00 FF FF FF 
   119.412469 1  0CF00400x       Rx   d 8 FF FF FF 00 00 FF FF FF 
   119.417469 1  0CF00400x       Rx   d 8 FF FF FF 00 00 FF FF FF 
   119.422469 1  0CF00400x       Rx   d 8 FF FF FF 00 00 FF FF FF 
   119.427468 1  0CF00400x       Rx   d 8 FF FF FF 00 00 FF FF FF 
   119.432464 1  0CF00400x       Rx   d 8 FF FF FF 00 00 FF FF FF 
   119.437459 1  0CF00400x       Rx   d 8 FF FF FF 00 00 FF FF FF 
   119.442462 1  0CF00400x       Rx   d 8 FF FF FF 00 00 FF FF FF 
   119.447462 1  0CF00400x       Rx   d 8 FF FF FF 00 00 FF FF FF 
   119.452462 1  0CF00400x       Rx   d 8 FF FF FF 00 00 FF FF FF 
   119.457461 1  0CF00400x       Rx   d 8 FF FF FF 00 00 FF FF FF 
   119.462461 1  0CF00400x       Rx   d 8 FF FF FF 00 00 FF FF FF 
   119.467460 1  0CF00400x       Rx   d 8 FF FF FF 00 00 FF FF FF 
   119.472460 1  0CF00400x       Rx   d 8 FF FF FF 00 00 FF FF FF 
   119.477459 1  0CF00400x       Rx   d 8 FF FF FF 00 00 FF FF FF 
   119.482459 1  0CF00400x       Rx   d 8 FF FF FF 00 00 FF FF FF 
   119.487458 1  0CF00400x       Rx   d 8 FF FF FF 00 00 FF FF FF 
   119.492458 1  0CF00400x       Rx   d 8 FF FF FF 00 00 FF FF FF 
   119.497457 1  0CF00400x       Rx   d 8 FF FF FF 00 00 FF FF FF 
   119.502457 1  0CF00400x       Rx   d 8 FF FF FF 00 00 FF FF FF 
   119.507456 1  0CF00400x       Rx   d 8 FF FF FF 00 00 FF FF FF 
   119.512452 1  0CF00400x       Rx   d 8 FF FF FF 00 00 FF FF FF 
   119.517451 1  0CF00400x       Rx   d 8 FF FF FF 00 00 FF FF FF 
   119.522451 1  0CF00400x       Rx   d 8 FF FF FF 00 00 FF FF FF 
   119.527451 1  0CF00400x       Rx   d 8 FF FF FF 00 00 FF FF FF 
   119.532450 1  0CF00400x       Rx   d 8 FF FF FF 00 00 FF FF FF 
   119.537450 1  0CF00400x       Rx   d 8 FF FF FF 00 00 FF FF FF 
   119.542449 1  0CF00400x       Rx   d 8 FF FF FF 00 00 FF FF FF 
   119.547449 1  0CF00400x       Rx   d 8 FF FF FF 00 00 FF FF FF 
   119.552449 1  0CF00400x       Rx   d 8 FF FF FF 00 00 FF FF FF 
   119.557448 1  0CF00400x       Rx   d 8 FF FF FF 00 00 FF FF FF 
   119.562443 1  0CF00400x       Rx   d 8 FF FF FF 00 00 FF FF FF 
   119.567444 1  0CF00400x       Rx   d 8 FF FF FF 00 00 FF FF FF 
   119.572443 1  0CF00400x       Rx   d 8 FF FF FF 00 00 FF FF FF 
   119.577443 1  0CF00400x       Rx   d 8 FF FF FF 00 00 FF FF FF 
   119.582442 1  0CF00400x       Rx   d 8 FF FF FF 00 00 FF FF FF 
   119.587442 1  0CF00400x       Rx   d 8 FF FF FF 00 00 FF FF FF 
   119.592441 1  0CF00400x       Rx   d 8 FF FF FF 00 00 FF FF FF 
   119.597442 1  0CF00400x       Rx   d 8 FF FF FF 00 00 FF FF FF 
   119.602441 1  0CF00400x       Rx   d 8 FF FF FF 00 00 FF FF FF 
   119.607440 1  0CF00400x       Rx   d 8 FF FF FF 00 00 FF FF FF 
   119.612440 1  0CF00400x       Rx   d 8 FF FF FF 00 00 FF FF FF 
   119.617439 1  0CF00400x       Rx   d 8 FF FF FF 00 00 FF FF FF 
   119.622439 1  0CF00400x       Rx   d 8 FF FF FF 00 00 FF FF FF 
   119.627439 1  0CF00400x       Rx   d 8 FF FF FF 00 00 FF FF FF 
   119.632438 1  0CF00400x       Rx   d 8 FF FF FF 00 00 FF FF FF 
   119.637433 1  0CF00400x       Rx   d 8 FF FF FF 00 00 FF FF FF 
   119.642433 1  0CF00400x       Rx   d 8 FF FF FF 00 00 FF FF FF 
   119.647433 1  0CF00400x       Rx   d 8 FF FF FF 00 00 FF FF FF 
   119.652432 1  0CF00400x       Rx   d 8 FF FF FF 00 00 FF FF FF 
   119.657432 1  0CF00400x       Rx   d 8 FF FF FF 00 00 FF FF FF 
   119.662435 1  0CF00400x       Rx   d 8 FF FF FF 00 00 FF FF FF 
   119.667435 1  0CF00400x       Rx   d 8 FF FF FF 00 00 FF FF FF 
   119.672430 1  0CF00400x       Rx   d 8 FF FF FF 00 00 FF FF FF 
   119.677430 1  0CF00400x       Rx   d 8 FF FF FF 00 00 FF FF FF 
   119.682429 1  0CF00400x       Rx   d 8 FF FF FF 00 00 FF FF FF 
   119.687425 1  0CF00400x       Rx   d 8 FF FF FF 00 00 FF FF FF 
   119.692429 1  0CF00400x       Rx   d 8 FF FF FF 00 00 FF FF FF 
   119.697428 1  0CF00400x       Rx   d 8 FF FF FF 00 00 FF FF FF 
   119.702427 1  0CF00400x       Rx   d 8 FF FF FF 00 00 FF FF FF 
   119.707423 1  0CF00400x       Rx   d 8 FF FF FF 00 00 FF FF FF 
   119.712423 1  0CF00400x       Rx   d 8 FF FF FF 00 00 FF FF FF 
   119.717422 1  0CF00400x       Rx   d 8 FF FF FF 00 00 FF FF FF 
   119.722421 1  0CF00400x       Rx   d 8 FF FF FF 00 00 FF FF FF 
   119.727421 1  0CF00400x       Rx   d 8 FF FF FF 00 00 FF FF FF 
   119.732420 1  0CF00400x       Rx   d 8 FF FF FF 00 00 FF FF FF 
   119.737420 1  0CF00400x       Rx   d 8 FF FF FF 00 00 FF FF FF 
   119.742420 1  0CF00400x       Rx   d 8 FF FF FF 00 00 FF FF FF 
   119.747419 1  0CF00400x       Rx   d 8 FF FF FF 00 00 FF FF FF 
   119.752419 1  0CF00400x       Rx   d 8 FF FF FF 00 00 FF FF FF 
   119.757418 1  0CF00400x       Rx   d 8 FF FF FF 00 00 FF FF FF 
   119.762418 1  0CF00400x       Rx   d 8 FF FF FF 00 00 FF FF FF 
   119.767417 1  0CF00400x       Rx   d 8 FF FF FF 00 00 FF FF FF 
   119.772417 1  0CF00400x       Rx   d 8 FF FF FF 00 00 FF FF FF 
   119.777416 1  0CF00400x       Rx   d 8 FF FF FF 00 00 FF FF FF 
   119.782416 1  0CF00400x       Rx   d 8 FF FF FF 00 00 FF FF FF 
   119.787415 1  0CF00400x       Rx   d 8 FF FF FF 00 00 FF FF FF 
   119.792415 1  0CF00400x       Rx   d 8 FF FF FF 00 00 FF FF FF 
   119.797415 1  0CF00400x       Rx   d 8 FF FF FF 00 00 FF FF FF 
   119.802414 1  0CF00400x       Rx   d 8 FF FF FF 00 00 FF FF FF 
   119.807413 1  0CF00400x       Rx   d 8 FF FF FF 00 00 FF FF FF 
   119.812409 1  0CF00400x       Rx   d 8 FF FF FF 00 00 FF FF FF 
   119.817409 1  0CF00400x       Rx   d 8 FF FF FF 00 00 FF FF FF 
   119.822408 1  0CF00400x       Rx   d 8 FF FF FF 00 00 FF FF FF 
   119.827408 1  0CF00400x       Rx   d 8 FF FF FF 00 00 FF FF FF 
   119.832407 1  0CF00400x       Rx   d 8 FF FF FF 00 00 FF FF FF 
   119.837407 1  0CF00400x       Rx   d 8 FF FF FF 00 00 FF FF FF 
   119.842407 1  0CF00400x       Rx   d 8 FF FF FF 00 00 FF FF FF 
   119.847406 1  0CF00400x       Rx   d 8 FF FF FF 00 00 FF FF FF 
   119.852405 1  0CF00400x       Rx   d 8 FF FF FF 00 00 FF FF FF 
   119.857405 1  0CF00400x       Rx   d 8 FF FF FF 00 00 FF FF FF 
   119.862404 1  0CF00400x       Rx   d 8 FF FF FF 00 00 FF FF FF 
   119.867404 1  0CF00400x       Rx   d 8 FF FF FF 00 00 FF FF FF 
   119.872403 1  0CF00400x       Rx   d 8 FF FF FF 00 00 FF FF FF 
   119.877403 1  0CF00400x       Rx   d 8 FF FF FF 00 00 FF FF FF 
   119.882402 1  0CF00400x       Rx   d 8 FF FF FF 00 00 FF FF FF 
   119.887402 1  0CF00400x       Rx   d 8 FF FF FF 00 00 FF FF FF 
   119.892402 1  0CF00400x       Rx   d 8 FF FF FF 00 00 FF FF FF 
   119.897401 1  0CF00400x       Rx   d 8 FF FF FF 00 00 FF FF FF 
   119.902401 1  0CF00400x       Rx   d 8 FF FF FF 00 00 FF FF FF 
   119.907400 1  0CF00400x       Rx   d 8 FF FF FF 00 00 FF FF FF 
   119.912396 1  0CF00400x       Rx   d 8 FF FF FF 00 00 FF FF FF 
   119.917395 1  0CF00400x       Rx   d 8 FF FF FF 00 00 FF FF FF 
   119.922395 1  0CF00400x       Rx   d 8 FF FF FF 00 00 FF FF FF 
   119.927395 1  0CF00400x       Rx   d 8 FF FF FF 00 00 FF FF FF 
   119.932394 1  0CF00400x       Rx   d 8 FF FF FF 00 00 FF FF FF 
   119.937389 1  0CF00400x       Rx   d 8 FF FF FF 00 00 FF FF FF 
   119.942393 1  0CF00400x       Rx   d 8 FF FF FF 00 00 FF FF FF 
   119.947388 1  0CF00400x       Rx   d 8 FF FF FF 00 00 FF FF FF 
   119.952388 1  0CF00400x       Rx   d 8 FF FF FF 00 00 FF FF FF 
   119.957391 1  0CF00400x       Rx   d 8 FF FF FF 00 00 FF FF FF 
   119.962391 1  0CF00400x       Rx   d 8 FF FF FF 00 00 FF FF FF 
   119.967391 1  0CF00400x       Rx   d 8 FF FF FF 00 00 FF FF FF 
   119.972390 1  0CF00400x       Rx   d 8 FF FF FF 00 00 FF FF FF 
   119.977390 1  0CF00400x       Rx   d 8 FF FF FF 00 00 FF FF FF 
   119.982389 1  0CF00400x       Rx   d 8 FF FF FF 00 00 FF FF FF 
   119.987389 1  0CF00400x       Rx   d 8 FF FF FF 00 00 FF FF FF 
   119.992384 1  0CF00400x       Rx   d 8 FF FF FF 00 00 FF FF FF 
   119.997384 1  0CF00400x       Rx   d 8 FF FF FF 00 00 FF FF FF 
   120.002383 1  0CF00400x       Rx   d 8 FF FF FF 00 00 FF FF FF 
   120.007383 1  0CF00400x       Rx   d 8 FF FF FF 00 00 FF FF FF 
   120.012382 1  0CF00400x       Rx   d 8 FF FF FF 00 00 FF FF FF 
   120.017382 1  0CF00400x       Rx   d 8 FF FF FF 00 00 FF FF FF 
   120.022381 1  0CF00400x       Rx   d 8 FF FF FF 00 00 FF FF FF 
   120.027381 1  0CF00400x       Rx   d 8 FF FF FF 00 00 FF FF FF 
   120.032381 1  0CF00400x       Rx   d 8 FF FF FF 00 00 FF FF FF 
   120.037380 1  0CF00400x       Rx   d 8 FF FF FF 00 00 FF FF FF 
   120.042380 1  0CF00400x       Rx   d 8 FF FF FF 00 00 FF FF FF 
   120.047379 1  0CF00400x       Rx   d 8 FF FF FF 00 00 FF FF FF 
   120.052379 1  0CF00400x       Rx   d 8 FF FF FF 00 00 FF FF FF 
   120.057379 1  0CF00400x       Rx   d 8 FF FF FF 00 00 FF FF FF 
   120.062375 1  0CF00400x       Rx   d 8 FF FF FF 00 00 FF FF FF 
   120.067374 1  0CF00400x       Rx   d 8 FF FF FF 00 00 FF FF FF 
   120.072374 1  0CF00400x       Rx   d 8 FF FF FF 00 00 FF FF FF 
   120.077373 1  0CF00400x       Rx   d 8 FF FF FF 00 00 FF FF FF 
   120.082373 1  0CF00400x       Rx   d 8 FF FF FF 00 00 FF FF FF 
   120.087372 1  0CF00400x       Rx   d 8 FF FF FF 00 00 FF FF FF 
   120.092372 1  0CF00400x       Rx   d 8 FF FF FF 00 00 FF FF FF 
   120.097371 1  0CF00400x       Rx   d 8 FF FF FF 00 00 FF FF FF 
   120.102371 1  0CF00400x       Rx   d 8 FF FF FF 00 00 FF FF FF 
   120.107370 1  0CF00400x       Rx   d 8 FF FF FF 00 00 FF FF FF 
   120.112370 1  0CF00400x       Rx   d 8 FF FF FF 00 00 FF FF FF 
   120.117366 1  0CF00400x       Rx   d 8 FF FF FF 00 00 FF FF FF 
   120.122365 1  0CF00400x       Rx   d 8 FF FF FF 00 00 FF FF FF 
   120.127365 1  0CF00400x       Rx   d 8 FF FF FF 00 00 FF FF FF 
   120.132364 1  0CF00400x       Rx   d 8 FF FF FF 00 00 FF FF FF 
   120.137364 1  0CF00400x       Rx   d 8 FF FF FF 00 00 FF FF FF 
   120.142364 1  0CF00400x       Rx   d 8 FF FF FF 00 00 FF FF FF 
   120.147363 1  0CF00400x       Rx   d 8 FF FF FF 00 00 FF FF FF 
   120.152362 1  0CF00400x       Rx   d 8 FF FF FF 00 00 FF FF FF 
   120.157362 1  0CF00400x       Rx   d 8 FF FF FF 00 00 FF FF FF 
   120.162362 1  0CF00400x       Rx   d 8 FF FF FF 00 00 FF FF FF 
   120.167361 1  0CF00400x       Rx   d 8 FF FF FF 00 00 FF FF FF 
   120.172360 1  0CF00400x       Rx   d 8 FF FF FF 00 00 FF FF FF 
   120.177360 1  0CF00400x       Rx   d 8 FF FF FF 00 00 FF FF FF 
   120.182359 1  0CF00400x       Rx   d 8 FF FF FF 00 00 FF FF FF 
   120.187355 1  0CF00400x       Rx   d 8 FF FF FF 00 00 FF FF FF 
   120.192355 1  0CF00400x       Rx   d 8 FF FF FF 00 00 FF FF FF 
   120.197354 1  0CF00400x       Rx   d 8 FF FF FF 00 00 FF FF FF 
   120.202354 1  0CF00400x       Rx   d 8 FF FF FF 00 00 FF FF FF 
   120.207353 1  0CF00400x       Rx   d 8 FF FF FF 00 00 FF FF FF 
   120.212353 1  0CF00400x       Rx   d 8 FF FF FF 00 00 FF FF FF 
   120.217352 1  0CF00400x       Rx   d 8 FF FF FF 00 00 FF FF FF 
   120.222352 1  0CF00400x       Rx   d 8 FF FF FF 00 00 FF FF FF 
   120.227351 1  0CF00400x       Rx   d 8 FF FF FF 00 00 FF FF FF 
   120.232351 1  0CF00400x       Rx   d 8 FF FF FF 00 00 FF FF FF 
   120.237350 1  0CF00400x       Rx   d 8 FF FF FF 00 00 FF FF FF 
   120.242350 1  0CF00400x       Rx   d 8 FF FF FF 00 00 FF FF FF 
   120.247350 1  0CF00400x       Rx   d 8 FF FF FF 00 00 FF FF FF 
   120.252349 1  0CF00400x       Rx   d 8 FF FF FF 00 00 FF FF FF 
   120.257349 1  0CF00400x       Rx   d 8 FF FF FF 00 00 FF FF FF 
   120.262348 1  0CF00400x       Rx   d 8 FF FF FF 00 00 FF FF FF 
   120.267348 1  0CF00400x       Rx   d 8 FF FF FF 00 00 FF FF FF 
   120.272347 1  0CF00400x       Rx   d 8 FF FF FF 00 00 FF FF FF 
   120.277347 1  0CF00400x       Rx   d 8 FF FF FF 00 00 FF FF FF 
   120.282346 1  0CF00400x       Rx   d 8 FF FF FF 00 00 FF FF FF 
   120.287346 1  0CF00400x       Rx   d 8 FF FF FF 00 00 FF FF FF 
   120.292345 1  0CF00400x       Rx   d 8 FF FF FF 00 00 FF FF FF 
