date Tue Oct 6 20:42:24 2026
base hex  timestamps absolute
no internal events logged
// TOSUN libLog V2022.10.6.794
   38.405135 1  0CF00400x       Rx   d 8 FF FF FF 00 00 FF FF FF 
   38.415134 1  0CF00400x       Rx   d 8 FF FF FF 00 00 FF FF FF 
   38.425137 1  0CF00400x       Rx   d 8 FF FF FF 00 00 FF FF FF 
   38.435132 1  0CF00400x       Rx   d 8 FF FF FF 00 00 FF FF FF 
   38.445130 1  0CF00400x       Rx   d 8 FF FF FF 00 00 FF FF FF 
   38.455126 1  0CF00400x       Rx   d 8 FF FF FF 00 00 FF FF FF 
   38.465120 1  0CF00400x       Rx   d 8 FF FF FF 00 00 FF FF FF 
   38.475131 1  0CF00400x       Rx   d 8 FF FF FF 00 00 FF FF FF 
   38.485126 1  0CF00400x       Rx   d 8 FF FF FF 00 00 FF FF FF 
   38.495120 1  0CF00400x       Rx   d 8 FF FF FF 00 00 FF FF FF 
   38.505120 1  0CF00400x       Rx   d 8 FF FF FF 00 00 FF FF FF 
   38.515118 1  0CF00400x       Rx   d 8 FF FF FF 00 00 FF FF FF 
   38.525113 1  0CF00400x       Rx   d 8 FF FF FF 00 00 FF FF FF 
   38.535112 1  0CF00400x       Rx   d 8 FF FF FF 00 00 FF FF FF 
   38.545107 1  0CF00400x       Rx   d 8 FF FF FF 00 00 FF FF FF 
   38.555105 1  0CF00400x       Rx   d 8 FF FF FF 00 00 FF FF FF 
   38.565104 1  0CF00400x       Rx   d 8 FF FF FF 00 00 FF FF FF 
   38.575107 1  0CF00400x       Rx   d 8 FF FF FF 00 00 FF FF FF 
   38.585106 1  0CF00400x       Rx   d 8 FF FF FF 00 00 FF FF FF 
   38.595105 1  0CF00400x       Rx   d 8 FF FF FF 00 00 FF FF FF 
   38.605103 1  0CF00400x       Rx   d 8 FF FF FF 00 00 FF FF FF 
   38.615103 1  0CF00400x       Rx   d 8 FF FF FF 00 00 FF FF FF 
   38.625101 1  0CF00400x       Rx   d 8 FF FF FF 00 00 FF FF FF 
   38.635096 1  0CF00400x       Rx   d 8 FF FF FF 00 00 FF FF FF 
   38.645091 1  0CF00400x       Rx   d 8 FF FF FF 00 00 FF FF FF 
   38.655102 1  0CF00400x       Rx   d 8 FF FF FF 00 00 FF FF FF 
   38.665100 1  0CF00400x       Rx   d 8 FF FF FF 00 00 FF FF FF 
   38.675099 1  0CF00400x       Rx   d 8 FF FF FF 00 00 FF FF FF 
   38.685098 1  0CF00400x       Rx   d 8 FF FF FF 00 00 FF FF FF 
   38.695097 1  0CF00400x       Rx   d 8 FF FF FF 00 00 FF FF FF 
   38.705096 1  0CF00400x       Rx   d 8 FF FF FF 00 00 FF FF FF 
   38.715094 1  0CF00400x       Rx   d 8 FF FF FF 00 00 FF FF FF 
   38.725093 1  0CF00400x       Rx   d 8 FF FF FF 00 00 FF FF FF 
   38.735092 1  0CF00400x       Rx   d 8 FF FF FF 00 00 FF FF FF 
   38.745091 1  0CF00400x       Rx   d 8 FF FF FF 00 00 FF FF FF 
   38.755090 1  0CF00400x       Rx   d 8 FF FF FF 00 00 FF FF FF 
   38.765089 1  0CF00400x       Rx   d 8 FF FF FF 00 00 FF FF FF 
   38.775079 1  0CF00400x       Rx   d 8 FF FF FF 00 00 FF FF FF 
   38.785078 1  0CF00400x       Rx   d 8 FF FF FF 00 00 FF FF FF 
   38.795077 1  0CF00400x       Rx   d 8 FF FF FF 00 00 FF FF FF 
   38.805076 1  0CF00400x       Rx   d 8 FF FF FF 00 00 FF FF FF 
   38.815071 1  0CF00400x       Rx   d 8 FF FF FF 00 00 FF FF FF 
   38.825069 1  0CF00400x       Rx   d 8 FF FF FF 00 00 FF FF FF 
   38.835068 1  0CF00400x       Rx   d 8 FF FF FF 00 00 FF FF FF 
   38.845067 1  0CF00400x       Rx   d 8 FF FF FF 00 00 FF FF FF 
   38.855066 1  0CF00400x       Rx   d 8 FF FF FF 00 00 FF FF FF 
   38.865065 1  0CF00400x       Rx   d 8 FF FF FF 00 00 FF FF FF 
   38.875064 1  0CF00400x       Rx   d 8 FF FF FF 00 00 FF FF FF 
   38.885062 1  0CF00400x       Rx   d 8 FF FF FF 00 00 FF FF FF 
   38.895057 1  0CF00400x       Rx   d 8 FF FF FF 00 00 FF FF FF 
   38.905056 1  0CF00400x       Rx   d 8 FF FF FF 00 00 FF FF FF 
   38.915059 1  0CF00400x       Rx   d 8 FF FF FF 00 00 FF FF FF 
   38.925058 1  0CF00400x       Rx   d 8 FF FF FF 00 00 FF FF FF 
   38.935056 1  0CF00400x       Rx   d 8 FF FF FF 00 00 FF FF FF 
   38.945055 1  0CF00400x       Rx   d 8 FF FF FF 00 00 FF FF FF 
   38.955050 1  0CF00400x       Rx   d 8 FF FF FF 00 00 FF FF FF 
   38.965049 1  0CF00400x       Rx   d 8 FF FF FF 00 00 FF FF FF 
   38.975048 1  0CF00400x       Rx   d 8 FF FF FF 00 00 FF FF FF 
   38.985047 1  0CF00400x       Rx   d 8 FF FF FF 00 00 FF FF FF 
   38.995045 1  0CF00400x       Rx   d 8 FF FF FF 00 00 FF FF FF 
   39.005044 1  0CF00400x       Rx   d 8 FF FF FF 00 00 FF FF FF 
   39.015043 1  0CF00400x       Rx   d 8 FF FF FF 00 00 FF FF FF 
   39.025050 1  0CF00400x       Rx   d 8 FF FF FF 00 00 FF FF FF 
   39.035045 1  0CF00400x       Rx   d 8 FF FF FF 00 00 FF FF FF 
   39.045043 1  0CF00400x       Rx   d 8 FF FF FF 00 00 FF FF FF 
   39.055042 1  0CF00400x       Rx   d 8 FF FF FF 00 00 FF FF FF 
   39.065041 1  0CF00400x       Rx   d 8 FF FF FF 00 00 FF FF FF 
   39.075040 1  0CF00400x       Rx   d 8 FF FF FF 00 00 FF FF FF 
   39.085039 1  0CF00400x       Rx   d 8 FF FF FF 00 00 FF FF FF 
   39.095037 1  0CF00400x       Rx   d 8 FF FF FF 00 00 FF FF FF 
   39.105036 1  0CF00400x       Rx   d 8 FF FF FF 00 00 FF FF FF 
   39.115035 1  0CF00400x       Rx   d 8 FF FF FF 00 00 FF FF FF 
   39.125034 1  0CF00400x       Rx   d 8 FF FF FF 00 00 FF FF FF 
   39.135033 1  0CF00400x       Rx   d 8 FF FF FF 00 00 FF FF FF 
   39.145024 1  0CF00400x       Rx   d 8 FF FF FF 00 00 FF FF FF 
   39.155027 1  0CF00400x       Rx   d 8 FF FF FF 00 00 FF FF FF 
   39.165025 1  0CF00400x       Rx   d 8 FF FF FF 00 00 FF FF FF 
   39.175024 1  0CF00400x       Rx   d 8 FF FF FF 00 00 FF FF FF 
   39.185023 1  0CF00400x       Rx   d 8 FF FF FF 00 00 FF FF FF 
   39.195022 1  0CF00400x       Rx   d 8 FF FF FF 00 00 FF FF FF 
   39.205017 1  0CF00400x       Rx   d 8 FF FF FF 00 00 FF FF FF 
   39.215015 1  0CF00400x       Rx   d 8 FF FF FF 00 00 FF FF FF 
   39.225014 1  0CF00400x       Rx   d 8 FF FF FF 00 00 FF FF FF 
   39.235013 1  0CF00400x       Rx   d 8 FF FF FF 00 00 FF FF FF 
   39.245012 1  0CF00400x       Rx   d 8 FF FF FF 00 00 FF FF FF 
   39.255011 1  0CF00400x       Rx   d 8 FF FF FF 00 00 FF FF FF 
   39.265010 1  0CF00400x       Rx   d 8 FF FF FF 00 00 FF FF FF 
   39.275016 1  0CF00400x       Rx   d 8 FF FF FF 00 00 FF FF FF 
   39.285015 1  0CF00400x       Rx   d 8 FF FF FF 00 00 FF FF FF 
   39.295014 1  0CF00400x       Rx   d 8 FF FF FF 00 00 FF FF FF 
   39.305009 1  0CF00400x       Rx   d 8 FF FF FF 00 00 FF FF FF 
   39.315008 1  0CF00400x       Rx   d 8 FF FF FF 00 00 FF FF FF 
   39.325007 1  0CF00400x       Rx   d 8 FF FF FF 00 00 FF FF FF 
   39.335005 1  0CF00400x       Rx   d 8 FF FF FF 00 00 FF FF FF 
   39.345004 1  0CF00400x       Rx   d 8 FF FF FF 00 00 FF FF FF 
   39.355003 1  0CF00400x       Rx   d 8 FF FF FF 00 00 FF FF FF 
   39.365002 1  0CF00400x       Rx   d 8 FF FF FF 00 00 FF FF FF 
   39.375000 1  0CF00400x       Rx   d 8 FF FF FF 00 00 FF FF FF 
   39.384999 1  0CF00400x       Rx   d 8 FF FF FF 00 00 FF FF FF 
   39.394994 1  0CF00400x       Rx   d 8 FF FF FF 00 00 FF FF FF 
   39.404997 1  0CF00400x       Rx   d 8 FF FF FF 00 00 FF FF FF 
   39.414984 1  0CF00400x       Rx   d 8 FF FF FF 00 00 FF FF FF 
   39.424986 1  0CF00400x       Rx   d 8 FF FF FF 00 00 FF FF FF 
   39.434989 1  0CF00400x       Rx   d 8 FF FF FF 00 00 FF FF FF 
   39.444988 1  0CF00400x       Rx   d 8 FF FF FF 00 00 FF FF FF 
   39.454991 1  0CF00400x       Rx   d 8 FF FF FF 00 00 FF FF FF 
   39.464978 1  0CF00400x       Rx   d 8 FF FF FF 00 00 FF FF FF 
   39.474981 1  0CF00400x       Rx   d 8 FF FF FF 00 00 FF FF FF 
   39.484984 1  0CF00400x       Rx   d 8 FF FF FF 00 00 FF FF FF 
   39.494982 1  0CF00400x       Rx   d 8 FF FF FF 00 00 FF FF FF 
   39.504973 1  0CF00400x       Rx   d 8 FF FF FF 00 00 FF FF FF 
   39.514972 1  0CF00400x       Rx   d 8 FF FF FF 00 00 FF FF FF 
   39.524971 1  0CF00400x       Rx   d 8 FF FF FF 00 00 FF FF FF 
   39.534970 1  0CF00400x       Rx   d 8 FF FF FF 00 00 FF FF FF 
   39.544972 1  0CF00400x       Rx   d 8 FF FF FF 00 00 FF FF FF 
   39.554971 1  0CF00400x       Rx   d 8 FF FF FF 00 00 FF FF FF 
   39.564974 1  0CF00400x       Rx   d 8 FF FF FF 00 00 FF FF FF 
   39.574965 1  0CF00400x       Rx   d 8 FF FF FF 00 00 FF FF FF 
   39.584964 1  0CF00400x       Rx   d 8 FF FF FF 00 00 FF FF FF 
   39.594966 1  0CF00400x       Rx   d 8 FF FF FF 00 00 FF FF FF 
   39.604969 1  0CF00400x       Rx   d 8 FF FF FF 00 00 FF FF FF 
   39.614956 1  0CF00400x       Rx   d 8 FF FF FF 00 00 FF FF FF 
   39.624959 1  0CF00400x       Rx   d 8 FF FF FF 00 00 FF FF FF 
   39.634958 1  0CF00400x       Rx   d 8 FF FF FF 00 00 FF FF FF 
   39.644957 1  0CF00400x       Rx   d 8 FF FF FF 00 00 FF FF FF 
   39.654959 1  0CF00400x       Rx   d 8 FF FF FF 00 00 FF FF FF 
   39.664958 1  0CF00400x       Rx   d 8 FF FF FF 00 00 FF FF FF 
   39.674949 1  0CF00400x       Rx   d 8 FF FF FF 00 00 FF FF FF 
   39.684948 1  0CF00400x       Rx   d 8 FF FF FF 00 00 FF FF FF 
   39.694951 1  0CF00400x       Rx   d 8 FF FF FF 00 00 FF FF FF 
   39.704953 1  0CF00400x       Rx   d 8 FF FF FF 00 00 FF FF FF 
   39.714952 1  0CF00400x       Rx   d 8 FF FF FF 00 00 FF FF FF 
   39.724943 1  0CF00400x       Rx   d 8 FF FF FF 00 00 FF FF FF 
   39.734942 1  0CF00400x       Rx   d 8 FF FF FF 00 00 FF FF FF 
   39.744945 1  0CF00400x       Rx   d 8 FF FF FF 00 00 FF FF FF 
   39.754944 1  0CF00400x       Rx   d 8 FF FF FF 00 00 FF FF FF 
   39.764946 1  0CF00400x       Rx   d 8 FF FF FF 00 00 FF FF FF 
   39.774941 1  0CF00400x       Rx   d 8 FF FF FF 00 00 FF FF FF 
   39.784944 1  0CF00400x       Rx   d 8 FF FF FF 00 00 FF FF FF 
   39.794931 1  0CF00400x       Rx   d 8 FF FF FF 00 00 FF FF FF 
   39.804933 1  0CF00400x       Rx   d 8 FF FF FF 00 00 FF FF FF 
   39.814932 1  0CF00400x       Rx   d 8 FF FF FF 00 00 FF FF FF 
   39.824935 1  0CF00400x       Rx   d 8 FF FF FF 00 00 FF FF FF 
   39.834934 1  0CF00400x       Rx   d 8 FF FF FF 00 00 FF FF FF 
   39.844925 1  0CF00400x       Rx   d 8 FF FF FF 00 00 FF FF FF 
   39.854924 1  0CF00400x       Rx   d 8 FF FF FF 00 00 FF FF FF 
   39.864927 1  0CF00400x       Rx   d 8 FF FF FF 00 00 FF FF FF 
   39.874929 1  0CF00400x       Rx   d 8 FF FF FF 00 00 FF FF FF 
   39.884928 1  0CF00400x       Rx   d 8 FF FF FF 00 00 FF FF FF 
   39.894911 1  0CF00400x       Rx   d 8 FF FF FF 00 00 FF FF FF 
   39.904914 1  0CF00400x       Rx   d 8 FF FF FF 00 00 FF FF FF 
   39.914916 1  0CF00400x       Rx   d 8 FF FF FF 00 00 FF FF FF 
   39.924919 1  0CF00400x       Rx   d 8 FF FF FF 00 00 FF FF FF 
   39.934918 1  0CF00400x       Rx   d 8 FF FF FF 00 00 FF FF FF 
   39.944921 1  0CF00400x       Rx   d 8 FF FF FF 00 00 FF FF FF 
   39.954908 1  0CF00400x       Rx   d 8 FF FF FF 00 00 FF FF FF 
   39.964911 1  0CF00400x       Rx   d 8 FF FF FF 00 00 FF FF FF 
   39.974909 1  0CF00400x       Rx   d 8 FF FF FF 00 00 FF FF FF 
   39.984913 1  0CF00400x       Rx   d 8 FF FF FF 00 00 FF FF FF 
   39.994899 1  0CF00400x       Rx   d 8 FF FF FF 00 00 FF FF FF 
   40.004902 1  0CF00400x       Rx   d 8 FF FF FF 00 00 FF FF FF 
   40.014905 1  0CF00400x       Rx   d 8 FF FF FF 00 00 FF FF FF 
   40.024900 1  0CF00400x       Rx   d 8 FF FF FF 00 00 FF FF FF 
   40.034902 1  0CF00400x       Rx   d 8 FF FF FF 00 00 FF FF FF 
   40.044901 1  0CF00400x       Rx   d 8 FF FF FF 00 00 FF FF FF 
   40.054904 1  0CF00400x       Rx   d 8 FF FF FF 00 00 FF FF FF 
   40.064891 1  0CF00400x       Rx   d 8 FF FF FF 00 00 FF FF FF 
   40.074894 1  0CF00400x       Rx   d 8 FF FF FF 00 00 FF FF FF 
   40.084896 1  0CF00400x       Rx   d 8 FF FF FF 00 00 FF FF FF 
   40.094899 1  0CF00400x       Rx   d 8 FF FF FF 00 00 FF FF FF 
   40.104886 1  0CF00400x       Rx   d 8 FF FF FF 00 00 FF FF FF 
   40.114889 1  0CF00400x       Rx   d 8 FF FF FF 00 00 FF FF FF 
   40.124888 1  0CF00400x       Rx   d 8 FF FF FF 00 00 FF FF FF 
   40.134890 1  0CF00400x       Rx   d 8 FF FF FF 00 00 FF FF FF 
   40.144885 1  0CF00400x       Rx   d 8 FF FF FF 00 00 FF FF FF 
   40.154889 1  0CF00400x       Rx   d 8 FF FF FF 00 00 FF FF FF 
   40.164879 1  0CF00400x       Rx   d 8 FF FF FF 00 00 FF FF FF 
   40.174882 1  0CF00400x       Rx   d 8 FF FF FF 00 00 FF FF FF 
   40.184880 1  0CF00400x       Rx   d 8 FF FF FF 00 00 FF FF FF 
   40.194883 1  0CF00400x       Rx   d 8 FF FF FF 00 00 FF FF FF 
   40.204870 1  0CF00400x       Rx   d 8 FF FF FF 00 00 FF FF FF 
   40.214873 1  0CF00400x       Rx   d 8 FF FF FF 00 00 FF FF FF 
   40.224876 1  0CF00400x       Rx   d 8 FF FF FF 00 00 FF FF FF 
   40.234875 1  0CF00400x       Rx   d 8 FF FF FF 00 00 FF FF FF 
   40.244877 1  0CF00400x       Rx   d 8 FF FF FF 00 00 FF FF FF 
   40.254864 1  0CF00400x       Rx   d 8 FF FF FF 00 00 FF FF FF 
   40.264867 1  0CF00400x       Rx   d 8 FF FF FF 00 00 FF FF FF 
   40.274862 1  0CF00400x       Rx   d 8 FF FF FF 00 00 FF FF FF 
   40.284865 1  0CF00400x       Rx   d 8 FF FF FF 00 00 FF FF FF 
   40.294867 1  0CF00400x       Rx   d 8 FF FF FF 00 00 FF FF FF 
   40.304866 1  0CF00400x       Rx   d 8 FF FF FF 00 00 FF FF FF 
   40.314857 1  0CF00400x       Rx   d 8 FF FF FF 00 00 FF FF FF 
   40.324856 1  0CF00400x       Rx   d 8 FF FF FF 00 00 FF FF FF 
   40.334859 1  0CF00400x       Rx   d 8 FF FF FF 00 00 FF FF FF 
   40.344858 1  0CF00400x       Rx   d 8 FF FF FF 00 00 FF FF FF 
   40.354860 1  0CF00400x       Rx   d 8 FF FF FF 00 00 FF FF FF 
   40.364847 1  0CF00400x       Rx   d 8 FF FF FF 00 00 FF FF FF 
   40.374850 1  0CF00400x       Rx   d 8 FF FF FF 00 00 FF FF FF 
   40.384853 1  0CF00400x       Rx   d 8 FF FF FF 00 00 FF FF FF 
   40.394852 1  0CF00400x       Rx   d 8 FF FF FF 00 00 FF FF FF 
   40.404854 1  0CF00400x       Rx   d 8 FF FF FF 00 00 FF FF FF 
   40.414841 1  0CF00400x       Rx   d 8 FF FF FF 00 00 FF FF FF 
   40.424844 1  0CF00400x       Rx   d 8 FF FF FF 00 00 FF FF FF 
   40.434843 1  0CF00400x       Rx   d 8 FF FF FF 00 00 FF FF FF 
   40.444846 1  0CF00400x       Rx   d 8 FF FF FF 00 00 FF FF FF 
   40.454845 1  0CF00400x       Rx   d 8 FF FF FF 00 00 FF FF FF 
   40.464835 1  0CF00400x       Rx   d 8 FF FF FF 00 00 FF FF FF 
   40.474838 1  0CF00400x       Rx   d 8 FF FF FF 00 00 FF FF FF 
   40.484837 1  0CF00400x       Rx   d 8 FF FF FF 00 00 FF FF FF 
   40.494840 1  0CF00400x       Rx   d 8 FF FF FF 00 00 FF FF FF 
   40.504831 1  0CF00400x       Rx   d 8 FF FF FF 00 00 FF FF FF 
   40.514829 1  0CF00400x       Rx   d 8 FF FF FF 00 00 FF FF FF 
   40.524832 1  0CF00400x       Rx   d 8 FF FF FF 00 00 FF FF FF 
   40.534835 1  0CF00400x       Rx   d 8 FF FF FF 00 00 FF FF FF 
   40.544822 1  0CF00400x       Rx   d 8 FF FF FF 00 00 FF FF FF 
   40.554825 1  0CF00400x       Rx   d 8 FF FF FF 00 00 FF FF FF 
   40.564824 1  0CF00400x       Rx   d 8 FF FF FF 00 00 FF FF FF 
   40.574827 1  0CF00400x       Rx   d 8 FF FF FF 00 00 FF FF FF 
   40.584829 1  0CF00400x       Rx   d 8 FF FF FF 00 00 FF FF FF 
   40.594816 1  0CF00400x       Rx   d 8 FF FF FF 00 00 FF FF FF 
   40.604819 1  0CF00400x       Rx   d 8 FF FF FF 00 00 FF FF FF 
   40.614818 1  0CF00400x       Rx   d 8 FF FF FF 00 00 FF FF FF 
   40.624820 1  0CF00400x       Rx   d 8 FF FF FF 00 00 FF FF FF 
   40.634819 1  0CF00400x       Rx   d 8 FF FF FF 00 00 FF FF FF 
   40.644806 1  0CF00400x       Rx   d 8 FF FF FF 00 00 FF FF FF 
   40.654805 1  0CF00400x       Rx   d 8 FF FF FF 00 00 FF FF FF 
   40.664808 1  0CF00400x       Rx   d 8 FF FF FF 00 00 FF FF FF 
   40.674811 1  0CF00400x       Rx   d 8 FF FF FF 00 00 FF FF FF 
   40.684813 1  0CF00400x       Rx   d 8 FF FF FF 00 00 FF FF FF 
   40.694800 1  0CF00400x       Rx   d 8 FF FF FF 00 00 FF FF FF 
   40.704803 1  0CF00400x       Rx   d 8 FF FF FF 00 00 FF FF FF 
   40.714806 1  0CF00400x       Rx   d 8 FF FF FF 00 00 FF FF FF 
   40.724805 1  0CF00400x       Rx   d 8 FF FF FF 00 00 FF FF FF 
   40.734808 1  0CF00400x       Rx   d 8 FF FF FF 00 00 FF FF FF 
   40.744794 1  0CF00400x       Rx   d 8 FF FF FF 00 00 FF FF FF 
   40.754797 1  0CF00400x       Rx   d 8 FF FF FF 00 00 FF FF FF 
   40.764796 1  0CF00400x       Rx   d 8 FF FF FF 00 00 FF FF FF 
   40.774799 1  0CF00400x       Rx   d 8 FF FF FF 00 00 FF FF FF 
   40.784785 1  0CF00400x       Rx   d 8 FF FF FF 00 00 FF FF FF 
   40.794788 1  0CF00400x       Rx   d 8 FF FF FF 00 00 FF FF FF 
   40.804791 1  0CF00400x       Rx   d 8 FF FF FF 00 00 FF FF FF 
   40.814790 1  0CF00400x       Rx   d 8 FF FF FF 00 00 FF FF FF 
   40.824793 1  0CF00400x       Rx   d 8 FF FF FF 00 00 FF FF FF 
   40.834784 1  0CF00400x       Rx   d 8 FF FF FF 00 00 FF FF FF 
   40.844782 1  0CF00400x       Rx   d 8 FF FF FF 00 00 FF FF FF 
   40.854785 1  0CF00400x       Rx   d 8 FF FF FF 00 00 FF FF FF 
   40.864784 1  0CF00400x       Rx   d 8 FF FF FF 00 00 FF FF FF 
   40.874787 1  0CF00400x       Rx   d 8 FF FF FF 00 00 FF FF FF 
   40.884774 1  0CF00400x       Rx   d 8 FF FF FF 00 00 FF FF FF 
   40.894772 1  0CF00400x       Rx   d 8 FF FF FF 00 00 FF FF FF 
   40.904775 1  0CF00400x       Rx   d 8 FF FF FF 00 00 FF FF FF 
   40.914774 1  0CF00400x       Rx   d 8 FF FF FF 00 00 FF FF FF 
   40.924777 1  0CF00400x       Rx   d 8 FF FF FF 00 00 FF FF FF 
   40.934776 1  0CF00400x       Rx   d 8 FF FF FF 00 00 FF FF FF 
   40.944767 1  0CF00400x       Rx   d 8 FF FF FF 00 00 FF FF FF 
   40.954766 1  0CF00400x       Rx   d 8 FF FF FF 00 00 FF FF FF 
   40.964768 1  0CF00400x       Rx   d 8 FF FF FF 00 00 FF FF FF 
   40.974771 1  0CF00400x       Rx   d 8 FF FF FF 00 00 FF FF FF 
   40.984770 1  0CF00400x       Rx   d 8 FF FF FF 00 00 FF FF FF 
   40.994761 1  0CF00400x       Rx   d 8 FF FF FF 00 00 FF FF FF 
   41.004760 1  0CF00400x       Rx   d 8 FF FF FF 00 00 FF FF FF 
   41.014762 1  0CF00400x       Rx   d 8 FF FF FF 00 00 FF FF FF 
   41.024765 1  0CF00400x       Rx   d 8 FF FF FF 00 00 FF FF FF 
   41.034752 1  0CF00400x       Rx   d 8 FF FF FF 00 00 FF FF FF 
   41.044751 1  0CF00400x       Rx   d 8 FF FF FF 00 00 FF FF FF 
   41.054753 1  0CF00400x       Rx   d 8 FF FF FF 00 00 FF FF FF 
   41.064757 1  0CF00400x       Rx   d 8 FF FF FF 00 00 FF FF FF 
   41.074759 1  0CF00400x       Rx   d 8 FF FF FF 00 00 FF FF FF 
   41.084746 1  0CF00400x       Rx   d 8 FF FF FF 00 00 FF FF FF 
   41.094749 1  0CF00400x       Rx   d 8 FF FF FF 00 00 FF FF FF 
   41.104748 1  0CF00400x       Rx   d 8 FF FF FF 00 00 FF FF FF 
   41.114750 1  0CF00400x       Rx   d 8 FF FF FF 00 00 FF FF FF 
   41.124749 1  0CF00400x       Rx   d 8 FF FF FF 00 00 FF FF FF 
   41.134740 1  0CF00400x       Rx   d 8 FF FF FF 00 00 FF FF FF 
   41.144735 1  0CF00400x       Rx   d 8 FF FF FF 00 00 FF FF FF 
   41.154738 1  0CF00400x       Rx   d 8 FF FF FF 00 00 FF FF FF 
   41.164741 1  0CF00400x       Rx   d 8 FF FF FF 00 00 FF FF FF 
   41.174739 1  0CF00400x       Rx   d 8 FF FF FF 00 00 FF FF FF 
   41.184742 1  0CF00400x       Rx   d 8 FF FF FF 00 00 FF FF FF 
   41.194729 1  0CF00400x       Rx   d 8 FF FF FF 00 00 FF FF FF 
   41.204732 1  0CF00400x       Rx   d 8 FF FF FF 00 00 FF FF FF 
   41.214735 1  0CF00400x       Rx   d 8 FF FF FF 00 00 FF FF FF 
   41.224734 1  0CF00400x       Rx   d 8 FF FF FF 00 00 FF FF FF 
   41.234736 1  0CF00400x       Rx   d 8 FF FF FF 00 00 FF FF FF 
   41.244723 1  0CF00400x       Rx   d 8 FF FF FF 00 00 FF FF FF 
   41.254726 1  0CF00400x       Rx   d 8 FF FF FF 00 00 FF FF FF 
   41.264725 1  0CF00400x       Rx   d 8 FF FF FF 00 00 FF FF FF 
   41.274727 1  0CF00400x       Rx   d 8 FF FF FF 00 00 FF FF FF 
   41.284730 1  0CF00400x       Rx   d 8 FF FF FF 00 00 FF FF FF 
   41.294717 1  0CF00400x       Rx   d 8 FF FF FF 00 00 FF FF FF 
   41.304716 1  0CF00400x       Rx   d 8 FF FF FF 00 00 FF FF FF 
   41.314719 1  0CF00400x       Rx   d 8 FF FF FF 00 00 FF FF FF 
   41.324722 1  0CF00400x       Rx   d 8 FF FF FF 00 00 FF FF FF 
   41.334721 1  0CF00400x       Rx   d 8 FF FF FF 00 00 FF FF FF 
   41.344707 1  0CF00400x       Rx   d 8 FF FF FF 00 00 FF FF FF 
   41.354710 1  0CF00400x       Rx   d 8 FF FF FF 00 00 FF FF FF 
   41.364713 1  0CF00400x       Rx   d 8 FF FF FF 00 00 FF FF FF 
   41.374716 1  0CF00400x       Rx   d 8 FF FF FF 00 00 FF FF FF 
   41.384703 1  0CF00400x       Rx   d 8 FF FF FF 00 00 FF FF FF 
   41.394701 1  0CF00400x       Rx   d 8 FF FF FF 00 00 FF FF FF 
   41.404704 1  0CF00400x       Rx   d 8 FF FF FF 00 00 FF FF FF 
   41.414703 1  0CF00400x       Rx   d 8 FF FF FF 00 00 FF FF FF 
   41.424706 1  0CF00400x       Rx   d 8 FF FF FF 00 00 FF FF FF 
   41.434705 1  0CF00400x       Rx   d 8 FF FF FF 00 00 FF FF FF 
   41.444695 1  0CF00400x       Rx   d 8 FF FF FF 00 00 FF FF FF 
   41.454694 1  0CF00400x       Rx   d 8 FF FF FF 00 00 FF FF FF 
   41.464697 1  0CF00400x       Rx   d 8 FF FF FF 00 00 FF FF FF 
   41.474700 1  0CF00400x       Rx   d 8 FF FF FF 00 00 FF FF FF 
   41.484699 1  0CF00400x       Rx   d 8 FF FF FF 00 00 FF FF FF 
   41.494690 1  0CF00400x       Rx   d 8 FF FF FF 00 00 FF FF FF 
   41.504688 1  0CF00400x       Rx   d 8 FF FF FF 00 00 FF FF FF 
   41.514691 1  0CF00400x       Rx   d 8 FF FF FF 00 00 FF FF FF 
   41.524694 1  0CF00400x       Rx   d 8 FF FF FF 00 00 FF FF FF 
   41.534681 1  0CF00400x       Rx   d 8 FF FF FF 00 00 FF FF FF 
   41.544680 1  0CF00400x       Rx   d 8 FF FF FF 00 00 FF FF FF 
   41.554683 1  0CF00400x       Rx   d 8 FF FF FF 00 00 FF FF FF 
   41.564685 1  0CF00400x       Rx   d 8 FF FF FF 00 00 FF FF FF 
   41.574688 1  0CF00400x       Rx   d 8 FF FF FF 00 00 FF FF FF 
   41.584675 1  0CF00400x       Rx   d 8 FF FF FF 00 00 FF FF FF 
   41.594674 1  0CF00400x       Rx   d 8 FF FF FF 00 00 FF FF FF 
   41.604676 1  0CF00400x       Rx   d 8 FF FF FF 00 00 FF FF FF 
   41.614675 1  0CF00400x       Rx   d 8 FF FF FF 00 00 FF FF FF 
   41.624678 1  0CF00400x       Rx   d 8 FF FF FF 00 00 FF FF FF 
   41.634669 1  0CF00400x       Rx   d 8 FF FF FF 00 00 FF FF FF 
   41.644664 1  0CF00400x       Rx   d 8 FF FF FF 00 00 FF FF FF 
   41.654667 1  0CF00400x       Rx   d 8 FF FF FF 00 00 FF FF FF 
   41.664669 1  0CF00400x       Rx   d 8 FF FF FF 00 00 FF FF FF 
   41.674668 1  0CF00400x       Rx   d 8 FF FF FF 00 00 FF FF FF 
   41.684671 1  0CF00400x       Rx   d 8 FF FF FF 00 00 FF FF FF 
   41.694658 1  0CF00400x       Rx   d 8 FF FF FF 00 00 FF FF FF 
   41.704661 1  0CF00400x       Rx   d 8 FF FF FF 00 00 FF FF FF 
   41.714660 1  0CF00400x       Rx   d 8 FF FF FF 00 00 FF FF FF 
   41.724662 1  0CF00400x       Rx   d 8 FF FF FF 00 00 FF FF FF 
   41.734665 1  0CF00400x       Rx   d 8 FF FF FF 00 00 FF FF FF 
   41.744652 1  0CF00400x       Rx   d 8 FF FF FF 00 00 FF FF FF 
   41.754655 1  0CF00400x       Rx   d 8 FF FF FF 00 00 FF FF FF 
   41.764653 1  0CF00400x       Rx   d 8 FF FF FF 00 00 FF FF FF 
   41.774656 1  0CF00400x       Rx   d 8 FF FF FF 00 00 FF FF FF 
   41.784655 1  0CF00400x       Rx   d 8 FF FF FF 00 00 FF FF FF 
   41.794646 1  0CF00400x       Rx   d 8 FF FF FF 00 00 FF FF FF 
   41.804645 1  0CF00400x       Rx   d 8 FF FF FF 00 00 FF FF FF 
   41.814648 1  0CF00400x       Rx   d 8 FF FF FF 00 00 FF FF FF 
   41.824646 1  0CF00400x       Rx   d 8 FF FF FF 00 00 FF FF FF 
   41.834649 1  0CF00400x       Rx   d 8 FF FF FF 00 00 FF FF FF 
   41.844636 1  0CF00400x       Rx   d 8 FF FF FF 00 00 FF FF FF 
   41.854639 1  0CF00400x       Rx   d 8 FF FF FF 00 00 FF FF FF 
   41.864642 1  0CF00400x       Rx   d 8 FF FF FF 00 00 FF FF FF 
   41.874640 1  0CF00400x       Rx   d 8 FF FF FF 00 00 FF FF FF 
   41.884631 1  0CF00400x       Rx   d 8 FF FF FF 00 00 FF FF FF 
   41.894630 1  0CF00400x       Rx   d 8 FF FF FF 00 00 FF FF FF 
   41.904629 1  0CF00400x       Rx   d 8 FF FF FF 00 00 FF FF FF 
   41.914632 1  0CF00400x       Rx   d 8 FF FF FF 00 00 FF FF FF 
   41.924635 1  0CF00400x       Rx   d 8 FF FF FF 00 00 FF FF FF 
   41.934634 1  0CF00400x       Rx   d 8 FF FF FF 00 00 FF FF FF 
   41.944624 1  0CF00400x       Rx   d 8 FF FF FF 00 00 FF FF FF 
   41.954623 1  0CF00400x       Rx   d 8 FF FF FF 00 00 FF FF FF 
   41.964626 1  0CF00400x       Rx   d 8 FF FF FF 00 00 FF FF FF 
   41.974625 1  0CF00400x       Rx   d 8 FF FF FF 00 00 FF FF FF 
   41.984628 1  0CF00400x       Rx   d 8 FF FF FF 00 00 FF FF FF 
   41.994615 1  0CF00400x       Rx   d 8 FF FF FF 00 00 FF FF FF 
   42.004617 1  0CF00400x       Rx   d 8 FF FF FF 00 00 FF FF FF 
   42.014620 1  0CF00400x       Rx   d 8 FF FF FF 00 00 FF FF FF 
   42.024619 1  0CF00400x       Rx   d 8 FF FF FF 00 00 FF FF FF 
   42.034610 1  0CF00400x       Rx   d 8 FF FF FF 00 00 FF FF FF 
   42.044608 1  0CF00400x       Rx   d 8 FF FF FF 00 00 FF FF FF 
   42.054611 1  0CF00400x       Rx   d 8 FF FF FF 00 00 FF FF FF 
   42.064614 1  0CF00400x       Rx   d 8 FF FF FF 00 00 FF FF FF 
   42.074613 1  0CF00400x       Rx   d 8 FF FF FF 00 00 FF FF FF 
   42.084604 1  0CF00400x       Rx   d 8 FF FF FF 00 00 FF FF FF 
   42.094602 1  0CF00400x       Rx   d 8 FF FF FF 00 00 FF FF FF 
   42.104605 1  0CF00400x       Rx   d 8 FF FF FF 00 00 FF FF FF 
   42.114604 1  0CF00400x       Rx   d 8 FF FF FF 00 00 FF FF FF 
   42.124607 1  0CF00400x       Rx   d 8 FF FF FF 00 00 FF FF FF 
   42.134594 1  0CF00400x       Rx   d 8 FF FF FF 00 00 FF FF FF 
   42.144593 1  0CF00400x       Rx   d 8 FF FF FF 00 00 FF FF FF 
   42.154595 1  0CF00400x       Rx   d 8 FF FF FF 00 00 FF FF FF 
   42.164598 1  0CF00400x       Rx   d 8 FF FF FF 00 00 FF FF FF 
   42.174597 1  0CF00400x       Rx   d 8 FF FF FF 00 00 FF FF FF 
   42.184600 1  0CF00400x       Rx   d 8 FF FF FF 00 00 FF FF FF 
   42.194587 1  0CF00400x       Rx   d 8 FF FF FF 00 00 FF FF FF 
   42.204589 1  0CF00400x       Rx   d 8 FF FF FF 00 00 FF FF FF 
   42.214588 1  0CF00400x       Rx   d 8 FF FF FF 00 00 FF FF FF 
   42.224591 1  0CF00400x       Rx   d 8 FF FF FF 00 00 FF FF FF 
   42.234594 1  0CF00400x       Rx   d 8 FF FF FF 00 00 FF FF FF 
   42.244581 1  0CF00400x       Rx   d 8 FF FF FF 00 00 FF FF FF 
   42.254580 1  0CF00400x       Rx   d 8 FF FF FF 00 00 FF FF FF 
   42.264582 1  0CF00400x       Rx   d 8 FF FF FF 00 00 FF FF FF 
   42.274585 1  0CF00400x       Rx   d 8 FF FF FF 00 00 FF FF FF 
   42.284584 1  0CF00400x       Rx   d 8 FF FF FF 00 00 FF FF FF 
   42.294575 1  0CF00400x       Rx   d 8 FF FF FF 00 00 FF FF FF 
   42.304574 1  0CF00400x       Rx   d 8 FF FF FF 00 00 FF FF FF 
   42.314576 1  0CF00400x       Rx   d 8 FF FF FF 00 00 FF FF FF 
   42.324575 1  0CF00400x       Rx   d 8 FF FF FF 00 00 FF FF FF 
   42.334578 1  0CF00400x       Rx   d 8 FF FF FF 00 00 FF FF FF 
   42.344565 1  0CF00400x       Rx   d 8 FF FF FF 00 00 FF FF FF 
   42.354568 1  0CF00400x       Rx   d 8 FF FF FF 00 00 FF FF FF 
   42.364567 1  0CF00400x       Rx   d 8 FF FF FF 00 00 FF FF FF 
   42.374569 1  0CF00400x       Rx   d 8 FF FF FF 00 00 FF FF FF 
   42.384560 1  0CF00400x       Rx   d 8 FF FF FF 00 00 FF FF FF 
   42.394555 1  0CF00400x       Rx   d 8 FF FF FF 00 00 FF FF FF 
   42.404558 1  0CF00400x       Rx   d 8 FF FF FF 00 00 FF FF FF 
   42.414561 1  0CF00400x       Rx   d 8 FF FF FF 00 00 FF FF FF 
   42.424559 1  0CF00400x       Rx   d 8 FF FF FF 00 00 FF FF FF 
   42.434562 1  0CF00400x       Rx   d 8 FF FF FF 00 00 FF FF FF 
   42.444549 1  0CF00400x       Rx   d 8 FF FF FF 00 00 FF FF FF 
   42.454552 1  0CF00400x       Rx   d 8 FF FF FF 00 00 FF FF FF 
   42.464555 1  0CF00400x       Rx   d 8 FF FF FF 00 00 FF FF FF 
   42.474553 1  0CF00400x       Rx   d 8 FF FF FF 00 00 FF FF FF 
   42.484556 1  0CF00400x       Rx   d 8 FF FF FF 00 00 FF FF FF 
   42.494543 1  0CF00400x       Rx   d 8 FF FF FF 00 00 FF FF FF 
   42.504546 1  0CF00400x       Rx   d 8 FF FF FF 00 00 FF FF FF 
   42.514545 1  0CF00400x       Rx   d 8 FF FF FF 00 00 FF FF FF 
   42.524548 1  0CF00400x       Rx   d 8 FF FF FF 00 00 FF FF FF 
   42.534538 1  0CF00400x       Rx   d 8 FF FF FF 00 00 FF FF FF 
   42.544537 1  0CF00400x       Rx   d 8 FF FF FF 00 00 FF FF FF 
   42.554540 1  0CF00400x       Rx   d 8 FF FF FF 00 00 FF FF FF 
   42.564539 1  0CF00400x       Rx   d 8 FF FF FF 00 00 FF FF FF 
   42.574542 1  0CF00400x       Rx   d 8 FF FF FF 00 00 FF FF FF 
   42.584532 1  0CF00400x       Rx   d 8 FF FF FF 00 00 FF FF FF 
   42.594531 1  0CF00400x       Rx   d 8 FF FF FF 00 00 FF FF FF 
   42.604534 1  0CF00400x       Rx   d 8 FF FF FF 00 00 FF FF FF 
   42.614533 1  0CF00400x       Rx   d 8 FF FF FF 00 00 FF FF FF 
   42.624536 1  0CF00400x       Rx   d 8 FF FF FF 00 00 FF FF FF 
   42.634523 1  0CF00400x       Rx   d 8 FF FF FF 00 00 FF FF FF 
   42.644521 1  0CF00400x       Rx   d 8 FF FF FF 00 00 FF FF FF 
   42.654528 1  0CF00400x       Rx   d 8 FF FF FF 00 00 FF FF FF 
   42.664531 1  0CF00400x       Rx   d 8 FF FF FF 00 00 FF FF FF 
   42.674518 1  0CF00400x       Rx   d 8 FF FF FF 00 00 FF FF FF 
   42.684521 1  0CF00400x       Rx   d 8 FF FF FF 00 00 FF FF FF 
   42.694519 1  0CF00400x       Rx   d 8 FF FF FF 00 00 FF FF FF 
   42.704522 1  0CF00400x       Rx   d 8 FF FF FF 00 00 FF FF FF 
   42.714525 1  0CF00400x       Rx   d 8 FF FF FF 00 00 FF FF FF 
   42.724512 1  0CF00400x       Rx   d 8 FF FF FF 00 00 FF FF FF 
   42.734511 1  0CF00400x       Rx   d 8 FF FF FF 00 00 FF FF FF 
   42.744513 1  0CF00400x       Rx   d 8 FF FF FF 00 00 FF FF FF 
   42.754517 1  0CF00400x       Rx   d 8 FF FF FF 00 00 FF FF FF 
   42.764515 1  0CF00400x       Rx   d 8 FF FF FF 00 00 FF FF FF 
   42.774506 1  0CF00400x       Rx   d 8 FF FF FF 00 00 FF FF FF 
   42.784509 1  0CF00400x       Rx   d 8 FF FF FF 00 00 FF FF FF 
   42.794508 1  0CF00400x       Rx   d 8 FF FF FF 00 00 FF FF FF 
   42.804510 1  0CF00400x       Rx   d 8 FF FF FF 00 00 FF FF FF 
   42.814498 1  0CF00400x       Rx   d 8 FF FF FF 00 00 FF FF FF 
   42.824500 1  0CF00400x       Rx   d 8 FF FF FF 00 00 FF FF FF 
   42.834499 1  0CF00400x       Rx   d 8 FF FF FF 00 00 FF FF FF 
   42.844502 1  0CF00400x       Rx   d 8 FF FF FF 00 00 FF FF FF 
   42.854500 1  0CF00400x       Rx   d 8 FF FF FF 00 00 FF FF FF 
   42.864491 1  0CF00400x       Rx   d 8 FF FF FF 00 00 FF FF FF 
   42.874494 1  0CF00400x       Rx   d 8 FF FF FF 00 00 FF FF FF 
   42.884493 1  0CF00400x       Rx   d 8 FF FF FF 00 00 FF FF FF 
   42.894492 1  0CF00400x       Rx   d 8 FF FF FF 00 00 FF FF FF 
   42.904495 1  0CF00400x       Rx   d 8 FF FF FF 00 00 FF FF FF 
   42.914486 1  0CF00400x       Rx   d 8 FF FF FF 00 00 FF FF FF 
   42.924484 1  0CF00400x       Rx   d 8 FF FF FF 00 00 FF FF FF 
   42.934487 1  0CF00400x       Rx   d 8 FF FF FF 00 00 FF FF FF 
   42.944486 1  0CF00400x       Rx   d 8 FF FF FF 00 00 FF FF FF 
   42.954489 1  0CF00400x       Rx   d 8 FF FF FF 00 00 FF FF FF 
   42.964476 1  0CF00400x       Rx   d 8 FF FF FF 00 00 FF FF FF 
   42.974478 1  0CF00400x       Rx   d 8 FF FF FF 00 00 FF FF FF 
   42.984481 1  0CF00400x       Rx   d 8 FF FF FF 00 00 FF FF FF 
   42.994484 1  0CF00400x       Rx   d 8 FF FF FF 00 00 FF FF FF 
   43.004471 1  0CF00400x       Rx   d 8 FF FF FF 00 00 FF FF FF 
   43.014474 1  0CF00400x       Rx   d 8 FF FF FF 00 00 FF FF FF 
   43.024473 1  0CF00400x       Rx   d 8 FF FF FF 00 00 FF FF FF 
   43.034475 1  0CF00400x       Rx   d 8 FF FF FF 00 00 FF FF FF 
   43.044462 1  0CF00400x       Rx   d 8 FF FF FF 00 00 FF FF FF 
   43.054465 1  0CF00400x       Rx   d 8 FF FF FF 00 00 FF FF FF 
   43.064468 1  0CF00400x       Rx   d 8 FF FF FF 00 00 FF FF FF 
   43.074466 1  0CF00400x       Rx   d 8 FF FF FF 00 00 FF FF FF 
   43.084469 1  0CF00400x       Rx   d 8 FF FF FF 00 00 FF FF FF 
   43.094456 1  0CF00400x       Rx   d 8 FF FF FF 00 00 FF FF FF 
   43.104459 1  0CF00400x       Rx   d 8 FF FF FF 00 00 FF FF FF 
   43.114462 1  0CF00400x       Rx   d 8 FF FF FF 00 00 FF FF FF 
   43.124460 1  0CF00400x       Rx   d 8 FF FF FF 00 00 FF FF FF 
   43.134463 1  0CF00400x       Rx   d 8 FF FF FF 00 00 FF FF FF 
   43.144446 1  0CF00400x       Rx   d 8 FF FF FF 00 00 FF FF FF 
   43.154453 1  0CF00400x       Rx   d 8 FF FF FF 00 00 FF FF FF 
   43.164452 1  0CF00400x       Rx   d 8 FF FF FF 00 00 FF FF FF 
   43.174455 1  0CF00400x       Rx   d 8 FF FF FF 00 00 FF FF FF 
   43.184458 1  0CF00400x       Rx   d 8 FF FF FF 00 00 FF FF FF 
   43.194444 1  0CF00400x       Rx   d 8 FF FF FF 00 00 FF FF FF 
   43.204443 1  0CF00400x       Rx   d 8 FF FF FF 00 00 FF FF FF 
   43.214446 1  0CF00400x       Rx   d 8 FF FF FF 00 00 FF FF FF 
   43.224449 1  0CF00400x       Rx   d 8 FF FF FF 00 00 FF FF FF 
   43.234447 1  0CF00400x       Rx   d 8 FF FF FF 00 00 FF FF FF 
   43.244438 1  0CF00400x       Rx   d 8 FF FF FF 00 00 FF FF FF 
   43.254437 1  0CF00400x       Rx   d 8 FF FF FF 00 00 FF FF FF 
   43.264440 1  0CF00400x       Rx   d 8 FF FF FF 00 00 FF FF FF 
   43.274439 1  0CF00400x       Rx   d 8 FF FF FF 00 00 FF FF FF 
   43.284442 1  0CF00400x       Rx   d 8 FF FF FF 00 00 FF FF FF 
   43.294429 1  0CF00400x       Rx   d 8 FF FF FF 00 00 FF FF FF 
   43.304431 1  0CF00400x       Rx   d 8 FF FF FF 00 00 FF FF FF 
   43.314430 1  0CF00400x       Rx   d 8 FF FF FF 00 00 FF FF FF 
   43.324433 1  0CF00400x       Rx   d 8 FF FF FF 00 00 FF FF FF 
   43.334436 1  0CF00400x       Rx   d 8 FF FF FF 00 00 FF FF FF 
   43.344423 1  0CF00400x       Rx   d 8 FF FF FF 00 00 FF FF FF 
   43.354426 1  0CF00400x       Rx   d 8 FF FF FF 00 00 FF FF FF 
   43.364424 1  0CF00400x       Rx   d 8 FF FF FF 00 00 FF FF FF 
   43.374427 1  0CF00400x       Rx   d 8 FF FF FF 00 00 FF FF FF 
   43.384414 1  0CF00400x       Rx   d 8 FF FF FF 00 00 FF FF FF 
   43.394441 1  0CF00400x       Rx   d 8 FF FF FF B0 36 FF FF FF 
   43.404480 1  0CF00400x       Rx   d 8 FF FF FF 1E 37 FF FF FF 
   43.414510 1  0CF00400x       Rx   d 8 FF FF FF 8C 37 FF FF FF 
   43.424489 1  0CF00400x       Rx   d 8 FF FF FF FA 37 FF FF FF 
   43.434480 1  0CF00400x       Rx   d 8 FF FF FF 68 38 FF FF FF 
   43.444503 1  0CF00400x       Rx   d 8 FF FF FF D6 38 FF FF FF 
   43.454481 1  0CF00400x       Rx   d 8 FF FF FF 43 39 FF FF FF 
   43.464476 1  0CF00400x       Rx   d 8 FF FF FF B1 39 FF FF FF 
   43.474471 1  0CF00400x       Rx   d 8 FF FF FF 1F 3A FF FF FF 
   43.484494 1  0CF00400x       Rx   d 8 FF FF FF 8D 3A FF FF FF 
   43.494477 1  0CF00400x       Rx   d 8 FF FF FF FA 3A FF FF FF 
   43.504500 1  0CF00400x       Rx   d 8 FF FF FF 68 3B FF FF FF 
   43.514478 1  0CF00400x       Rx   d 8 FF FF FF D6 3B FF FF FF 
   43.524505 1  0CF00400x       Rx   d 8 FF FF FF 43 3C FF FF FF 
   43.534500 1  0CF00400x       Rx   d 8 FF FF FF B0 3C FF FF FF 
   43.544487 1  0CF00400x       Rx   d 8 FF FF FF 1E 3D FF FF FF 
   43.554498 1  0CF00400x       Rx   d 8 FF FF FF 8B 3D FF FF FF 
   43.564476 1  0CF00400x       Rx   d 8 FF FF FF F8 3D FF FF FF 
   43.574491 1  0CF00400x       Rx   d 8 FF FF FF 65 3E FF FF FF 
   43.584474 1  0CF00400x       Rx   d 8 FF FF FF D1 3E FF FF FF 
   43.594453 1  0CF00400x       Rx   d 8 FF FF FF 3E 3F FF FF FF 
   43.604480 1  0CF00400x       Rx   d 8 FF FF FF AB 3F FF FF FF 
   43.614454 1  0CF00400x       Rx   d 8 FF FF FF 17 40 FF FF FF 
   43.624453 1  0CF00400x       Rx   d 8 FF FF FF 83 40 FF FF FF 
   43.634476 1  0CF00400x       Rx   d 8 FF FF FF EF 40 FF FF FF 
   43.644463 1  0CF00400x       Rx   d 8 FF FF FF 5B 41 FF FF FF 
   43.654470 1  0CF00400x       Rx   d 8 FF FF FF C7 41 FF FF FF 
   43.664469 1  0CF00400x       Rx   d 8 FF FF FF 33 42 FF FF FF 
   43.674476 1  0CF00400x       Rx   d 8 FF FF FF 9E 42 FF FF FF 
   43.684439 1  0CF00400x       Rx   d 8 FF FF FF 09 43 FF FF FF 
   43.694437 1  0CF00400x       Rx   d 8 FF FF FF 74 43 FF FF FF 
   43.704452 1  0CF00400x       Rx   d 8 FF FF FF DF 43 FF FF FF 
   43.714455 1  0CF00400x       Rx   d 8 FF FF FF 4A 44 FF FF FF 
   43.724449 1  0CF00400x       Rx   d 8 FF FF FF B4 44 FF FF FF 
   43.734428 1  0CF00400x       Rx   d 8 FF FF FF 1E 45 FF FF FF 
   43.744467 1  0CF00400x       Rx   d 8 FF FF FF 88 45 FF FF FF 
   43.754454 1  0CF00400x       Rx   d 8 FF FF FF F2 45 FF FF FF 
   43.764437 1  0CF00400x       Rx   d 8 FF FF FF 5B 46 FF FF FF 
   43.774436 1  0CF00400x       Rx   d 8 FF FF FF C5 46 FF FF FF 
   43.784423 1  0CF00400x       Rx   d 8 FF FF FF 2E 47 FF FF FF 
   43.794453 1  0CF00400x       Rx   d 8 FF FF FF 96 47 FF FF FF 
   43.804452 1  0CF00400x       Rx   d 8 FF FF FF FF 47 FF FF FF 
   43.814427 1  0CF00400x       Rx   d 8 FF FF FF 67 48 FF FF FF 
   43.824418 1  0CF00400x       Rx   d 8 FF FF FF CF 48 FF FF FF 
   43.834444 1  0CF00400x       Rx   d 8 FF FF FF 36 49 FF FF FF 
   43.844435 1  0CF00400x       Rx   d 8 FF FF FF 9E 49 FF FF FF 
   43.854426 1  0CF00400x       Rx   d 8 FF FF FF 05 4A FF FF FF 
   43.864409 1  0CF00400x       Rx   d 8 FF FF FF 6B 4A FF FF FF 
   43.874444 1  0CF00400x       Rx   d 8 FF FF FF D2 4A FF FF FF 
   43.884427 1  0CF00400x       Rx   d 8 FF FF FF 38 4B FF FF FF 
   43.894413 1  0CF00400x       Rx   d 8 FF FF FF 9E 4B FF FF FF 
   43.904408 1  0CF00400x       Rx   d 8 FF FF FF 03 4C FF FF FF 
   43.914407 1  0CF00400x       Rx   d 8 FF FF FF 68 4C FF FF FF 
   43.924418 1  0CF00400x       Rx   d 8 FF FF FF CD 4C FF FF FF 
   43.934421 1  0CF00400x       Rx   d 8 FF FF FF 31 4D FF FF FF 
   43.944432 1  0CF00400x       Rx   d 8 FF FF FF 95 4D FF FF FF 
   43.954442 1  0CF00400x       Rx   d 8 FF FF FF F9 4D FF FF FF 
   43.964389 1  0CF00400x       Rx   d 8 FF FF FF 5C 4E FF FF FF 
   43.974404 1  0CF00400x       Rx   d 8 FF FF FF BF 4E FF FF FF 
   43.984403 1  0CF00400x       Rx   d 8 FF FF FF 22 4F FF FF FF 
   43.994422 1  0CF00400x       Rx   d 8 FF FF FF 84 4F FF FF FF 
   44.004424 1  0CF00400x       Rx   d 8 FF FF FF E6 4F FF FF FF 
   44.014419 1  0CF00400x       Rx   d 8 FF FF FF 47 50 FF FF FF 
   44.024386 1  0CF00400x       Rx   d 8 FF FF FF A8 50 FF FF FF 
   44.034401 1  0CF00400x       Rx   d 8 FF FF FF 09 51 FF FF FF 
   44.044412 1  0CF00400x       Rx   d 8 FF FF FF 69 51 FF FF FF 
   44.054383 1  0CF00400x       Rx   d 8 FF FF FF C8 51 FF FF FF 
   44.064381 1  0CF00400x       Rx   d 8 FF FF FF 28 52 FF FF FF 
   44.074424 1  0CF00400x       Rx   d 8 FF FF FF 87 52 FF FF FF 
   44.084415 1  0CF00400x       Rx   d 8 FF FF FF E5 52 FF FF FF 
   44.094398 1  0CF00400x       Rx   d 8 FF FF FF 43 53 FF FF FF 
   44.104388 1  0CF00400x       Rx   d 8 FF FF FF A1 53 FF FF FF 
   44.114379 1  0CF00400x       Rx   d 8 FF FF FF FE 53 FF FF FF 
   44.124402 1  0CF00400x       Rx   d 8 FF FF FF 5A 54 FF FF FF 
   44.134397 1  0CF00400x       Rx   d 8 FF FF FF B6 54 FF FF FF 
   44.144376 1  0CF00400x       Rx   d 8 FF FF FF 12 55 FF FF FF 
   44.154371 1  0CF00400x       Rx   d 8 FF FF FF 6D 55 FF FF FF 
   44.164409 1  0CF00400x       Rx   d 8 FF FF FF C8 55 FF FF FF 
   44.174392 1  0CF00400x       Rx   d 8 FF FF FF 22 56 FF FF FF 
   44.184379 1  0CF00400x       Rx   d 8 FF FF FF 7C 56 FF FF FF 
   44.194370 1  0CF00400x       Rx   d 8 FF FF FF D5 56 FF FF FF 
   44.204357 1  0CF00400x       Rx   d 8 FF FF FF 2E 57 FF FF FF 
   44.214399 1  0CF00400x       Rx   d 8 FF FF FF 86 57 FF FF FF 
   44.224378 1  0CF00400x       Rx   d 8 FF FF FF DE 57 FF FF FF 
   44.234357 1  0CF00400x       Rx   d 8 FF FF FF 35 58 FF FF FF 
   44.244352 1  0CF00400x       Rx   d 8 FF FF FF 8B 58 FF FF FF 
   44.254387 1  0CF00400x       Rx   d 8 FF FF FF E1 58 FF FF FF 
   44.264374 1  0CF00400x       Rx   d 8 FF FF FF 37 59 FF FF FF 
   44.274368 1  0CF00400x       Rx   d 8 FF FF FF 8C 59 FF FF FF 
   44.284360 1  0CF00400x       Rx   d 8 FF FF FF E0 59 FF FF FF 
   44.294390 1  0CF00400x       Rx   d 8 FF FF FF 34 5A FF FF FF 
   44.304381 1  0CF00400x       Rx   d 8 FF FF FF 88 5A FF FF FF 
   44.314368 1  0CF00400x       Rx   d 8 FF FF FF DA 5A FF FF FF 
   44.324351 1  0CF00400x       Rx   d 8 FF FF FF 2D 5B FF FF FF 
   44.334345 1  0CF00400x       Rx   d 8 FF FF FF 7E 5B FF FF FF 
   44.344376 1  0CF00400x       Rx   d 8 FF FF FF CF 5B FF FF FF 
   44.354367 1  0CF00400x       Rx   d 8 FF FF FF 20 5C FF FF FF 
   44.364346 1  0CF00400x       Rx   d 8 FF FF FF 70 5C FF FF FF 
   44.374341 1  0CF00400x       Rx   d 8 FF FF FF BF 5C FF FF FF 
   44.384372 1  0CF00400x       Rx   d 8 FF FF FF 0D 5D FF FF FF 
   44.394370 1  0CF00400x       Rx   d 8 FF FF FF 5B 5D FF FF FF 
   44.404385 1  0CF00400x       Rx   d 8 FF FF FF A9 5D FF FF FF 
   44.414416 1  0CF00400x       Rx   d 8 FF FF FF F6 5D FF FF FF 
   44.424379 1  0CF00400x       Rx   d 8 FF FF FF 42 5E FF FF FF 
   44.434349 1  0CF00400x       Rx   d 8 FF FF FF 8E 5E FF FF FF 
   44.444380 1  0CF00400x       Rx   d 8 FF FF FF D9 5E FF FF FF 
   44.454351 1  0CF00400x       Rx   d 8 FF FF FF 23 5F FF FF FF 
   44.464386 1  0CF00400x       Rx   d 8 FF FF FF 6D 5F FF FF FF 
   44.474357 1  0CF00400x       Rx   d 8 FF FF FF B6 5F FF FF FF 
   44.484400 1  0CF00400x       Rx   d 8 FF FF FF FE 5F FF FF FF 
   44.494362 1  0CF00400x       Rx   d 8 FF FF FF 46 60 FF FF FF 
   44.504353 1  0CF00400x       Rx   d 8 FF FF FF 8D 60 FF FF FF 
   44.514396 1  0CF00400x       Rx   d 8 FF FF FF D3 60 FF FF FF 
   44.524351 1  0CF00400x       Rx   d 8 FF FF FF 19 61 FF FF FF 
   44.534390 1  0CF00400x       Rx   d 8 FF FF FF 5E 61 FF FF FF 
   44.544357 1  0CF00400x       Rx   d 8 FF FF FF A2 61 FF FF FF 
   44.554387 1  0CF00400x       Rx   d 8 FF FF FF E6 61 FF FF FF 
   44.564350 1  0CF00400x       Rx   d 8 FF FF FF 29 62 FF FF FF 
   44.574385 1  0CF00400x       Rx   d 8 FF FF FF 6C 62 FF FF FF 
   44.584356 1  0CF00400x       Rx   d 8 FF FF FF AD 62 FF FF FF 
   44.594334 1  0CF00400x       Rx   d 8 FF FF FF EE 62 FF FF FF 
   44.604353 1  0CF00400x       Rx   d 8 FF FF FF 2F 63 FF FF FF 
   44.614344 1  0CF00400x       Rx   d 8 FF FF FF 6E 63 FF FF FF 
   44.624339 1  0CF00400x       Rx   d 8 FF FF FF AD 63 FF FF FF 
   44.634374 1  0CF00400x       Rx   d 8 FF FF FF EB 63 FF FF FF 
   44.644341 1  0CF00400x       Rx   d 8 FF FF FF 29 64 FF FF FF 
   44.654340 1  0CF00400x       Rx   d 8 FF FF FF 65 64 FF FF FF 
   44.664374 1  0CF00400x       Rx   d 8 FF FF FF A1 64 FF FF FF 
   44.674349 1  0CF00400x       Rx   d 8 FF FF FF DD 64 FF FF FF 
   44.684324 1  0CF00400x       Rx   d 8 FF FF FF 17 65 FF FF FF 
   44.694343 1  0CF00400x       Rx   d 8 FF FF FF 51 65 FF FF FF 
   44.704366 1  0CF00400x       Rx   d 8 FF FF FF 8A 65 FF FF FF 
   44.714341 1  0CF00400x       Rx   d 8 FF FF FF C2 65 FF FF FF 
   44.724375 1  0CF00400x       Rx   d 8 FF FF FF FA 65 FF FF FF 
   44.734346 1  0CF00400x       Rx   d 8 FF FF FF 31 66 FF FF FF 
   44.744329 1  0CF00400x       Rx   d 8 FF FF FF 67 66 FF FF FF 
   44.754304 1  0CF00400x       Rx   d 8 FF FF FF 9C 66 FF FF FF 
   44.764326 1  0CF00400x       Rx   d 8 FF FF FF D1 66 FF FF FF 
   44.774333 1  0CF00400x       Rx   d 8 FF FF FF 05 67 FF FF FF 
   44.784352 1  0CF00400x       Rx   d 8 FF FF FF 38 67 FF FF FF 
   44.794327 1  0CF00400x       Rx   d 8 FF FF FF 6A 67 FF FF FF 
   44.804306 1  0CF00400x       Rx   d 8 FF FF FF 9C 67 FF FF FF 
   44.814325 1  0CF00400x       Rx   d 8 FF FF FF CC 67 FF FF FF 
   44.824351 1  0CF00400x       Rx   d 8 FF FF FF FC 67 FF FF FF 
   44.834302 1  0CF00400x       Rx   d 8 FF FF FF 2C 68 FF FF FF 
   44.844325 1  0CF00400x       Rx   d 8 FF FF FF 5A 68 FF FF FF 
   44.854296 1  0CF00400x       Rx   d 8 FF FF FF 88 68 FF FF FF 
   44.864319 1  0CF00400x       Rx   d 8 FF FF FF B5 68 FF FF FF 
   44.874337 1  0CF00400x       Rx   d 8 FF FF FF E1 68 FF FF FF 
   44.884301 1  0CF00400x       Rx   d 8 FF FF FF 0C 69 FF FF FF 
   44.894315 1  0CF00400x       Rx   d 8 FF FF FF 36 69 FF FF FF 
   44.904298 1  0CF00400x       Rx   d 8 FF FF FF 60 69 FF FF FF 
   44.914321 1  0CF00400x       Rx   d 8 FF FF FF 89 69 FF FF FF 
   44.924335 1  0CF00400x       Rx   d 8 FF FF FF B1 69 FF FF FF 
   44.934298 1  0CF00400x       Rx   d 8 FF FF FF D8 69 FF FF FF 
   44.944317 1  0CF00400x       Rx   d 8 FF FF FF FF 69 FF FF FF 
   44.954328 1  0CF00400x       Rx   d 8 FF FF FF 24 6A FF FF FF 
   44.964287 1  0CF00400x       Rx   d 8 FF FF FF 49 6A FF FF FF 
   44.974302 1  0CF00400x       Rx   d 8 FF FF FF 6D 6A FF FF FF 
   44.984333 1  0CF00400x       Rx   d 8 FF FF FF 90 6A FF FF FF 
   44.994295 1  0CF00400x       Rx   d 8 FF FF FF B3 6A FF FF FF 
   45.004310 1  0CF00400x       Rx   d 8 FF FF FF D4 6A FF FF FF 
   45.014273 1  0CF00400x       Rx   d 8 FF FF FF F5 6A FF FF FF 
   45.024272 1  0CF00400x       Rx   d 8 FF FF FF 15 6B FF FF FF 
   45.034310 1  0CF00400x       Rx   d 8 FF FF FF 34 6B FF FF FF 
   45.044293 1  0CF00400x       Rx   d 8 FF FF FF 52 6B FF FF FF 
   45.054272 1  0CF00400x       Rx   d 8 FF FF FF 70 6B FF FF FF 
   45.064303 1  0CF00400x       Rx   d 8 FF FF FF 8C 6B FF FF FF 
   45.074282 1  0CF00400x       Rx   d 8 FF FF FF A8 6B FF FF FF 
   45.084264 1  0CF00400x       Rx   d 8 FF FF FF C3 6B FF FF FF 
   45.094303 1  0CF00400x       Rx   d 8 FF FF FF DD 6B FF FF FF 
   45.104274 1  0CF00400x       Rx   d 8 FF FF FF F6 6B FF FF FF 
   45.114297 1  0CF00400x       Rx   d 8 FF FF FF 0F 6C FF FF FF 
   45.124276 1  0CF00400x       Rx   d 8 FF FF FF 26 6C FF FF FF 
   45.134255 1  0CF00400x       Rx   d 8 FF FF FF 3D 6C FF FF FF 
   45.144290 1  0CF00400x       Rx   d 8 FF FF FF 53 6C FF FF FF 
   45.154289 1  0CF00400x       Rx   d 8 FF FF FF 68 6C FF FF FF 
   45.164275 1  0CF00400x       Rx   d 8 FF FF FF 7C 6C FF FF FF 
   45.174250 1  0CF00400x       Rx   d 8 FF FF FF 90 6C FF FF FF 
   45.184277 1  0CF00400x       Rx   d 8 FF FF FF A2 6C FF FF FF 
   45.194260 1  0CF00400x       Rx   d 8 FF FF FF B4 6C FF FF FF 
   45.204290 1  0CF00400x       Rx   d 8 FF FF FF C4 6C FF FF FF 
   45.214265 1  0CF00400x       Rx   d 8 FF FF FF D4 6C FF FF FF 
   45.224244 1  0CF00400x       Rx   d 8 FF FF FF E3 6C FF FF FF 
   45.234275 1  0CF00400x       Rx   d 8 FF FF FF F2 6C FF FF FF 
   45.244254 1  0CF00400x       Rx   d 8 FF FF FF FF 6C FF FF FF 
   45.254284 1  0CF00400x       Rx   d 8 FF FF FF 0B 6D FF FF FF 
   45.264264 1  0CF00400x       Rx   d 8 FF FF FF 17 6D FF FF FF 
   45.274258 1  0CF00400x       Rx   d 8 FF FF FF 22 6D FF FF FF 
   45.284237 1  0CF00400x       Rx   d 8 FF FF FF 2C 6D FF FF FF 
   45.294268 1  0CF00400x       Rx   d 8 FF FF FF 35 6D FF FF FF 
   45.304251 1  0CF00400x       Rx   d 8 FF FF FF 3D 6D FF FF FF 
   45.314226 1  0CF00400x       Rx   d 8 FF FF FF 44 6D FF FF FF 
   45.324252 1  0CF00400x       Rx   d 8 FF FF FF 4B 6D FF FF FF 
   45.334239 1  0CF00400x       Rx   d 8 FF FF FF 50 6D FF FF FF 
   45.344262 1  0CF00400x       Rx   d 8 FF FF FF 55 6D FF FF FF 
   45.354237 1  0CF00400x       Rx   d 8 FF FF FF 59 6D FF FF FF 
   45.364219 1  0CF00400x       Rx   d 8 FF FF FF 5C 6D FF FF FF 
   45.374250 1  0CF00400x       Rx   d 8 FF FF FF 5E 6D FF FF FF 
   45.384229 1  0CF00400x       Rx   d 8 FF FF FF 60 6D FF FF FF 
   45.394216 1  0CF00400x       Rx   d 8 FF FF FF 60 6D FF FF FF 
   45.404223 1  0CF00400x       Rx   d 8 FF FF FF 60 6D FF FF FF 
   45.414210 1  0CF00400x       Rx   d 8 FF FF FF 5E 6D FF FF FF 
   45.424261 1  0CF00400x       Rx   d 8 FF FF FF 5C 6D FF FF FF 
   45.434243 1  0CF00400x       Rx   d 8 FF FF FF 59 6D FF FF FF 
   45.444234 1  0CF00400x       Rx   d 8 FF FF FF 55 6D FF FF FF 
   45.454233 1  0CF00400x       Rx   d 8 FF FF FF 50 6D FF FF FF 
   45.464216 1  0CF00400x       Rx   d 8 FF FF FF 4B 6D FF FF FF 
   45.474211 1  0CF00400x       Rx   d 8 FF FF FF 44 6D FF FF FF 
   45.484205 1  0CF00400x       Rx   d 8 FF FF FF 3D 6D FF FF FF 
   45.494244 1  0CF00400x       Rx   d 8 FF FF FF 35 6D FF FF FF 
   45.504235 1  0CF00400x       Rx   d 8 FF FF FF 2C 6D FF FF FF 
   45.514226 1  0CF00400x       Rx   d 8 FF FF FF 22 6D FF FF FF 
   45.524245 1  0CF00400x       Rx   d 8 FF FF FF 17 6D FF FF FF 
   45.534235 1  0CF00400x       Rx   d 8 FF FF FF 0B 6D FF FF FF 
   45.544227 1  0CF00400x       Rx   d 8 FF FF FF FF 6C FF FF FF 
   45.554213 1  0CF00400x       Rx   d 8 FF FF FF F2 6C FF FF FF 
   45.564204 1  0CF00400x       Rx   d 8 FF FF FF E3 6C FF FF FF 
   45.574190 1  0CF00400x       Rx   d 8 FF FF FF D4 6C FF FF FF 
   45.584185 1  0CF00400x       Rx   d 8 FF FF FF C4 6C FF FF FF 
   45.594236 1  0CF00400x       Rx   d 8 FF FF FF B4 6C FF FF FF 
   45.604219 1  0CF00400x       Rx   d 8 FF FF FF A2 6C FF FF FF 
   45.614214 1  0CF00400x       Rx   d 8 FF FF FF 90 6C FF FF FF 
   45.624209 1  0CF00400x       Rx   d 8 FF FF FF 7C 6C FF FF FF 
   45.634187 1  0CF00400x       Rx   d 8 FF FF FF 68 6C FF FF FF 
   45.644182 1  0CF00400x       Rx   d 8 FF FF FF 53 6C FF FF FF 
   45.654197 1  0CF00400x       Rx   d 8 FF FF FF 3D 6C FF FF FF 
   45.664184 1  0CF00400x       Rx   d 8 FF FF FF 26 6C FF FF FF 
   45.674175 1  0CF00400x       Rx   d 8 FF FF FF 0F 6C FF FF FF 
   45.684173 1  0CF00400x       Rx   d 8 FF FF FF F6 6B FF FF FF 
   45.694224 1  0CF00400x       Rx   d 8 FF FF FF DD 6B FF FF FF 
   45.704211 1  0CF00400x       Rx   d 8 FF FF FF C3 6B FF FF FF 
   45.714206 1  0CF00400x       Rx   d 8 FF FF FF A8 6B FF FF FF 
   45.724197 1  0CF00400x       Rx   d 8 FF FF FF 8C 6B FF FF FF 
   45.734192 1  0CF00400x       Rx   d 8 FF FF FF 70 6B FF FF FF 
   45.744187 1  0CF00400x       Rx   d 8 FF FF FF 52 6B FF FF FF 
   45.754173 1  0CF00400x       Rx   d 8 FF FF FF 34 6B FF FF FF 
   45.764164 1  0CF00400x       Rx   d 8 FF FF FF 15 6B FF FF FF 
   45.774183 1  0CF00400x       Rx   d 8 FF FF FF F5 6A FF FF FF 
   45.784198 1  0CF00400x       Rx   d 8 FF FF FF D4 6A FF FF FF 
   45.794176 1  0CF00400x       Rx   d 8 FF FF FF B3 6A FF FF FF 
   45.804203 1  0CF00400x       Rx   d 8 FF FF FF 90 6A FF FF FF 
   45.814162 1  0CF00400x       Rx   d 8 FF FF FF 6D 6A FF FF FF 
   45.824197 1  0CF00400x       Rx   d 8 FF FF FF 49 6A FF FF FF 
   45.834172 1  0CF00400x       Rx   d 8 FF FF FF 24 6A FF FF FF 
   45.844211 1  0CF00400x       Rx   d 8 FF FF FF FF 69 FF FF FF 
   45.854186 1  0CF00400x       Rx   d 8 FF FF FF D8 69 FF FF FF 
   45.864153 1  0CF00400x       Rx   d 8 FF FF FF B1 69 FF FF FF 
   45.874187 1  0CF00400x       Rx   d 8 FF FF FF 89 69 FF FF FF 
   45.884158 1  0CF00400x       Rx   d 8 FF FF FF 60 69 FF FF FF 
   45.894189 1  0CF00400x       Rx   d 8 FF FF FF 36 69 FF FF FF 
   45.904187 1  0CF00400x       Rx   d 8 FF FF FF 0C 69 FF FF FF 
   45.914159 1  0CF00400x       Rx   d 8 FF FF FF E1 68 FF FF FF 
   45.924189 1  0CF00400x       Rx   d 8 FF FF FF B5 68 FF FF FF 
   45.934160 1  0CF00400x       Rx   d 8 FF FF FF 88 68 FF FF FF 
   45.944139 1  0CF00400x       Rx   d 8 FF FF FF 5A 68 FF FF FF 
   45.954170 1  0CF00400x       Rx   d 8 FF FF FF 2C 68 FF FF FF 
   45.964196 1  0CF00400x       Rx   d 8 FF FF FF FC 67 FF FF FF 
   45.974147 1  0CF00400x       Rx   d 8 FF FF FF CC 67 FF FF FF 
   45.984166 1  0CF00400x       Rx   d 8 FF FF FF 9C 67 FF FF FF 
   45.994133 1  0CF00400x       Rx   d 8 FF FF FF 6A 67 FF FF FF 
   46.004164 1  0CF00400x       Rx   d 8 FF FF FF 38 67 FF FF FF 
   46.014134 1  0CF00400x       Rx   d 8 FF FF FF 05 67 FF FF FF 
   46.024141 1  0CF00400x       Rx   d 8 FF FF FF D1 66 FF FF FF 
   46.034156 1  0CF00400x       Rx   d 8 FF FF FF 9C 66 FF FF FF 
   46.044135 1  0CF00400x       Rx   d 8 FF FF FF 67 66 FF FF FF 
   46.054174 1  0CF00400x       Rx   d 8 FF FF FF 31 66 FF FF FF 
   46.064160 1  0CF00400x       Rx   d 8 FF FF FF FA 65 FF FF FF 
   46.074131 1  0CF00400x       Rx   d 8 FF FF FF C2 65 FF FF FF 
   46.084174 1  0CF00400x       Rx   d 8 FF FF FF 8A 65 FF FF FF 
   46.094125 1  0CF00400x       Rx   d 8 FF FF FF 51 65 FF FF FF 
   46.104148 1  0CF00400x       Rx   d 8 FF FF FF 17 65 FF FF FF 
   46.114131 1  0CF00400x       Rx   d 8 FF FF FF DD 64 FF FF FF 
   46.124158 1  0CF00400x       Rx   d 8 FF FF FF A1 64 FF FF FF 
   46.134112 1  0CF00400x       Rx   d 8 FF FF FF 65 64 FF FF FF 
   46.144131 1  0CF00400x       Rx   d 8 FF FF FF 29 64 FF FF FF 
   46.154126 1  0CF00400x       Rx   d 8 FF FF FF EB 63 FF FF FF 
   46.164145 1  0CF00400x       Rx   d 8 FF FF FF AD 63 FF FF FF 
   46.174119 1  0CF00400x       Rx   d 8 FF FF FF 6E 63 FF FF FF 
   46.184102 1  0CF00400x       Rx   d 8 FF FF FF 2F 63 FF FF FF 
   46.194125 1  0CF00400x       Rx   d 8 FF FF FF EE 62 FF FF FF 
   46.204136 1  0CF00400x       Rx   d 8 FF FF FF AD 62 FF FF FF 
   46.214099 1  0CF00400x       Rx   d 8 FF FF FF 6C 62 FF FF FF 
   46.224110 1  0CF00400x       Rx   d 8 FF FF FF 29 62 FF FF FF 
   46.234137 1  0CF00400x       Rx   d 8 FF FF FF E6 61 FF FF FF 
   46.244099 1  0CF00400x       Rx   d 8 FF FF FF A2 61 FF FF FF 
   46.254114 1  0CF00400x       Rx   d 8 FF FF FF 5E 61 FF FF FF 
   46.264129 1  0CF00400x       Rx   d 8 FF FF FF 19 61 FF FF FF 
   46.274144 1  0CF00400x       Rx   d 8 FF FF FF D3 60 FF FF FF 
   46.284123 1  0CF00400x       Rx   d 8 FF FF FF 8D 60 FF FF FF 
   46.294093 1  0CF00400x       Rx   d 8 FF FF FF 46 60 FF FF FF 
   46.304121 1  0CF00400x       Rx   d 8 FF FF FF FE 5F FF FF FF 
   46.314127 1  0CF00400x       Rx   d 8 FF FF FF B6 5F FF FF FF 
   46.324086 1  0CF00400x       Rx   d 8 FF FF FF 6D 5F FF FF FF 
   46.334101 1  0CF00400x       Rx   d 8 FF FF FF 23 5F FF FF FF 
   46.344116 1  0CF00400x       Rx   d 8 FF FF FF D9 5E FF FF FF 
   46.354074 1  0CF00400x       Rx   d 8 FF FF FF 8E 5E FF FF FF 
   46.364093 1  0CF00400x       Rx   d 8 FF FF FF 42 5E FF FF FF 
   46.374116 1  0CF00400x       Rx   d 8 FF FF FF F6 5D FF FF FF 
   46.384075 1  0CF00400x       Rx   d 8 FF FF FF A9 5D FF FF FF 
   46.394125 1  0CF00400x       Rx   d 8 FF FF FF 5B 5D FF FF FF 
   46.404104 1  0CF00400x       Rx   d 8 FF FF FF 0D 5D FF FF FF 
   46.414107 1  0CF00400x       Rx   d 8 FF FF FF BF 5C FF FF FF 
   46.424102 1  0CF00400x       Rx   d 8 FF FF FF 70 5C FF FF FF 
   46.434113 1  0CF00400x       Rx   d 8 FF FF FF 20 5C FF FF FF 
   46.444112 1  0CF00400x       Rx   d 8 FF FF FF CF 5B FF FF FF 
   46.454114 1  0CF00400x       Rx   d 8 FF FF FF 7E 5B FF FF FF 
   46.464109 1  0CF00400x       Rx   d 8 FF FF FF 2D 5B FF FF FF 
   46.474072 1  0CF00400x       Rx   d 8 FF FF FF DA 5A FF FF FF 
   46.484075 1  0CF00400x       Rx   d 8 FF FF FF 88 5A FF FF FF 
   46.494074 1  0CF00400x       Rx   d 8 FF FF FF 34 5A FF FF FF 
   46.504080 1  0CF00400x       Rx   d 8 FF FF FF E0 59 FF FF FF 
   46.514076 1  0CF00400x       Rx   d 8 FF FF FF 8C 59 FF FF FF 
   46.524110 1  0CF00400x       Rx   d 8 FF FF FF 37 59 FF FF FF 
   46.534113 1  0CF00400x       Rx   d 8 FF FF FF E1 58 FF FF FF 
   46.544108 1  0CF00400x       Rx   d 8 FF FF FF 8B 58 FF FF FF 
   46.554106 1  0CF00400x       Rx   d 8 FF FF FF 35 58 FF FF FF 
   46.564054 1  0CF00400x       Rx   d 8 FF FF FF DE 57 FF FF FF 
   46.574064 1  0CF00400x       Rx   d 8 FF FF FF 86 57 FF FF FF 
   46.584055 1  0CF00400x       Rx   d 8 FF FF FF 2E 57 FF FF FF 
   46.594058 1  0CF00400x       Rx   d 8 FF FF FF D5 56 FF FF FF 
   46.604061 1  0CF00400x       Rx   d 8 FF FF FF 7C 56 FF FF FF 
   46.614060 1  0CF00400x       Rx   d 8 FF FF FF 22 56 FF FF FF 
   46.624066 1  0CF00400x       Rx   d 8 FF FF FF C8 55 FF FF FF 
   46.634065 1  0CF00400x       Rx   d 8 FF FF FF 6D 55 FF FF FF 
   46.644068 1  0CF00400x       Rx   d 8 FF FF FF 12 55 FF FF FF 
   46.654051 1  0CF00400x       Rx   d 8 FF FF FF B6 54 FF FF FF 
   46.664049 1  0CF00400x       Rx   d 8 FF FF FF 5A 54 FF FF FF 
   46.674068 1  0CF00400x       Rx   d 8 FF FF FF FE 53 FF FF FF 
   46.684067 1  0CF00400x       Rx   d 8 FF FF FF A1 53 FF FF FF 
   46.694066 1  0CF00400x       Rx   d 8 FF FF FF 43 53 FF FF FF 
   46.704073 1  0CF00400x       Rx   d 8 FF FF FF E5 52 FF FF FF 
   46.714072 1  0CF00400x       Rx   d 8 FF FF FF 87 52 FF FF FF 
   46.724062 1  0CF00400x       Rx   d 8 FF FF FF 28 52 FF FF FF 
   46.734085 1  0CF00400x       Rx   d 8 FF FF FF C8 51 FF FF FF 
   46.744044 1  0CF00400x       Rx   d 8 FF FF FF 69 51 FF FF FF 
   46.754067 1  0CF00400x       Rx   d 8 FF FF FF 09 51 FF FF FF 
   46.764074 1  0CF00400x       Rx   d 8 FF FF FF A8 50 FF FF FF 
   46.774040 1  0CF00400x       Rx   d 8 FF FF FF 47 50 FF FF FF 
   46.784055 1  0CF00400x       Rx   d 8 FF FF FF E6 4F FF FF FF 
   46.794062 1  0CF00400x       Rx   d 8 FF FF FF 84 4F FF FF FF 
   46.804049 1  0CF00400x       Rx   d 8 FF FF FF 22 4F FF FF FF 
   46.814056 1  0CF00400x       Rx   d 8 FF FF FF BF 4E FF FF FF 
   46.824055 1  0CF00400x       Rx   d 8 FF FF FF 5C 4E FF FF FF 
   46.834070 1  0CF00400x       Rx   d 8 FF FF FF F9 4D FF FF FF 
   46.844068 1  0CF00400x       Rx   d 8 FF FF FF 95 4D FF FF FF 
   46.854063 1  0CF00400x       Rx   d 8 FF FF FF 31 4D FF FF FF 
   46.864066 1  0CF00400x       Rx   d 8 FF FF FF CD 4C FF FF FF 
   46.874001 1  0CF00400x       Rx   d 8 FF FF FF 68 4C FF FF FF 
   46.884011 1  0CF00400x       Rx   d 8 FF FF FF 03 4C FF FF FF 
   46.894010 1  0CF00400x       Rx   d 8 FF FF FF 9E 4B FF FF FF 
   46.904045 1  0CF00400x       Rx   d 8 FF FF FF 38 4B FF FF FF 
   46.914052 1  0CF00400x       Rx   d 8 FF FF FF D2 4A FF FF FF 
   46.924047 1  0CF00400x       Rx   d 8 FF FF FF 6B 4A FF FF FF 
   46.934054 1  0CF00400x       Rx   d 8 FF FF FF 05 4A FF FF FF 
   46.944056 1  0CF00400x       Rx   d 8 FF FF FF 9E 49 FF FF FF 
   46.953991 1  0CF00400x       Rx   d 8 FF FF FF 36 49 FF FF FF 
   46.963998 1  0CF00400x       Rx   d 8 FF FF FF CF 48 FF FF FF 
   46.973997 1  0CF00400x       Rx   d 8 FF FF FF 67 48 FF FF FF 
   46.984012 1  0CF00400x       Rx   d 8 FF FF FF FF 47 FF FF FF 
   46.994006 1  0CF00400x       Rx   d 8 FF FF FF 96 47 FF FF FF 
   47.004005 1  0CF00400x       Rx   d 8 FF FF FF 2E 47 FF FF FF 
   47.014008 1  0CF00400x       Rx   d 8 FF FF FF C5 46 FF FF FF 
   47.024035 1  0CF00400x       Rx   d 8 FF FF FF 5B 46 FF FF FF 
   47.034042 1  0CF00400x       Rx   d 8 FF FF FF F2 45 FF FF FF 
   47.043985 1  0CF00400x       Rx   d 8 FF FF FF 88 45 FF FF FF 
   47.053979 1  0CF00400x       Rx   d 8 FF FF FF 1E 45 FF FF FF 
   47.063990 1  0CF00400x       Rx   d 8 FF FF FF B4 44 FF FF FF 
   47.073993 1  0CF00400x       Rx   d 8 FF FF FF 4A 44 FF FF FF 
   47.084004 1  0CF00400x       Rx   d 8 FF FF FF DF 43 FF FF FF 
   47.093999 1  0CF00400x       Rx   d 8 FF FF FF 74 43 FF FF FF 
   47.104001 1  0CF00400x       Rx   d 8 FF FF FF 09 43 FF FF FF 
   47.114004 1  0CF00400x       Rx   d 8 FF FF FF 9E 42 FF FF FF 
   47.124003 1  0CF00400x       Rx   d 8 FF FF FF 33 42 FF FF FF 
   47.134010 1  0CF00400x       Rx   d 8 FF FF FF C7 41 FF FF FF 
   47.144013 1  0CF00400x       Rx   d 8 FF FF FF 5B 41 FF FF FF 
   47.153988 1  0CF00400x       Rx   d 8 FF FF FF EF 40 FF FF FF 
   47.163994 1  0CF00400x       Rx   d 8 FF FF FF 83 40 FF FF FF 
   47.173985 1  0CF00400x       Rx   d 8 FF FF FF 17 40 FF FF FF 
   47.183992 1  0CF00400x       Rx   d 8 FF FF FF AB 3F FF FF FF 
   47.193987 1  0CF00400x       Rx   d 8 FF FF FF 3E 3F FF FF FF 
   47.203978 1  0CF00400x       Rx   d 8 FF FF FF D1 3E FF FF FF 
   47.213968 1  0CF00400x       Rx   d 8 FF FF FF 65 3E FF FF FF 
   47.223976 1  0CF00400x       Rx   d 8 FF FF FF F8 3D FF FF FF 
   47.233970 1  0CF00400x       Rx   d 8 FF FF FF 8B 3D FF FF FF 
   47.243953 1  0CF00400x       Rx   d 8 FF FF FF 1E 3D FF FF FF 
   47.254020 1  0CF00400x       Rx   d 8 FF FF FF B0 3C FF FF FF 
   47.264014 1  0CF00400x       Rx   d 8 FF FF FF 43 3C FF FF FF 
   47.273977 1  0CF00400x       Rx   d 8 FF FF FF D6 3B FF FF FF 
   47.283972 1  0CF00400x       Rx   d 8 FF FF FF 68 3B FF FF FF 
   47.293967 1  0CF00400x       Rx   d 8 FF FF FF FA 3A FF FF FF 
   47.303958 1  0CF00400x       Rx   d 8 FF FF FF 8D 3A FF FF FF 
   47.313961 1  0CF00400x       Rx   d 8 FF FF FF 1F 3A FF FF FF 
   47.323963 1  0CF00400x       Rx   d 8 FF FF FF B1 39 FF FF FF 
   47.333974 1  0CF00400x       Rx   d 8 FF FF FF 43 39 FF FF FF 
   47.343989 1  0CF00400x       Rx   d 8 FF FF FF D6 38 FF FF FF 
   47.353988 1  0CF00400x       Rx   d 8 FF FF FF 68 38 FF FF FF 
   47.363987 1  0CF00400x       Rx   d 8 FF FF FF FA 37 FF FF FF 
   47.373982 1  0CF00400x       Rx   d 8 FF FF FF 8C 37 FF FF FF 
   47.383977 1  0CF00400x       Rx   d 8 FF FF FF 1E 37 FF FF FF 
   47.393983 1  0CF00400x       Rx   d 8 FF FF FF B0 36 FF FF FF 
   47.403990 1  0CF00400x       Rx   d 8 FF FF FF 42 36 FF FF FF 
   47.413933 1  0CF00400x       Rx   d 8 FF FF FF D4 35 FF FF FF 
   47.423948 1  0CF00400x       Rx   d 8 FF FF FF 66 35 FF FF FF 
   47.433974 1  0CF00400x       Rx   d 8 FF FF FF F8 34 FF FF FF 
   47.443929 1  0CF00400x       Rx   d 8 FF FF FF 8A 34 FF FF FF 
   47.453952 1  0CF00400x       Rx   d 8 FF FF FF 1D 34 FF FF FF 
   47.463971 1  0CF00400x       Rx   d 8 FF FF FF AF 33 FF FF FF 
   47.473986 1  0CF00400x       Rx   d 8 FF FF FF 41 33 FF FF FF 
   47.483928 1  0CF00400x       Rx   d 8 FF FF FF D3 32 FF FF FF 
   47.493924 1  0CF00400x       Rx   d 8 FF FF FF 66 32 FF FF FF 
   47.503946 1  0CF00400x       Rx   d 8 FF FF FF F8 31 FF FF FF 
   47.513941 1  0CF00400x       Rx   d 8 FF FF FF 8A 31 FF FF FF 
   47.523976 1  0CF00400x       Rx   d 8 FF FF FF 1D 31 FF FF FF 
   47.533927 1  0CF00400x       Rx   d 8 FF FF FF B0 30 FF FF FF 
   47.543914 1  0CF00400x       Rx   d 8 FF FF FF 42 30 FF FF FF 
   47.553924 1  0CF00400x       Rx   d 8 FF FF FF D5 2F FF FF FF 
   47.563919 1  0CF00400x       Rx   d 8 FF FF FF 68 2F FF FF FF 
   47.573918 1  0CF00400x       Rx   d 8 FF FF FF FB 2E FF FF FF 
   47.583925 1  0CF00400x       Rx   d 8 FF FF FF 8F 2E FF FF FF 
   47.593915 1  0CF00400x       Rx   d 8 FF FF FF 22 2E FF FF FF 
   47.603926 1  0CF00400x       Rx   d 8 FF FF FF B5 2D FF FF FF 
   47.613925 1  0CF00400x       Rx   d 8 FF FF FF 49 2D FF FF FF 
   47.623928 1  0CF00400x       Rx   d 8 FF FF FF DD 2C FF FF FF 
   47.633923 1  0CF00400x       Rx   d 8 FF FF FF 71 2C FF FF FF 
   47.643922 1  0CF00400x       Rx   d 8 FF FF FF 05 2C FF FF FF 
   47.653904 1  0CF00400x       Rx   d 8 FF FF FF 99 2B FF FF FF 
   47.663903 1  0CF00400x       Rx   d 8 FF FF FF 2D 2B FF FF FF 
   47.673902 1  0CF00400x       Rx   d 8 FF FF FF C2 2A FF FF FF 
   47.683905 1  0CF00400x       Rx   d 8 FF FF FF 57 2A FF FF FF 
   47.693912 1  0CF00400x       Rx   d 8 FF FF FF EC 29 FF FF FF 
   47.703918 1  0CF00400x       Rx   d 8 FF FF FF 81 29 FF FF FF 
   47.713909 1  0CF00400x       Rx   d 8 FF FF FF 16 29 FF FF FF 
   47.723916 1  0CF00400x       Rx   d 8 FF FF FF AC 28 FF FF FF 
   47.733911 1  0CF00400x       Rx   d 8 FF FF FF 42 28 FF FF FF 
   47.743922 1  0CF00400x       Rx   d 8 FF FF FF D8 27 FF FF FF 
   47.753916 1  0CF00400x       Rx   d 8 FF FF FF 6E 27 FF FF FF 
   47.763923 1  0CF00400x       Rx   d 8 FF FF FF 05 27 FF FF FF 
   47.773898 1  0CF00400x       Rx   d 8 FF FF FF 9B 26 FF FF FF 
   47.783893 1  0CF00400x       Rx   d 8 FF FF FF 32 26 FF FF FF 
   47.793900 1  0CF00400x       Rx   d 8 FF FF FF CA 25 FF FF FF 
   47.803899 1  0CF00400x       Rx   d 8 FF FF FF 61 25 FF FF FF 
   47.813898 1  0CF00400x       Rx   d 8 FF FF FF F9 24 FF FF FF 
   47.823909 1  0CF00400x       Rx   d 8 FF FF FF 91 24 FF FF FF 
   47.833895 1  0CF00400x       Rx   d 8 FF FF FF 2A 24 FF FF FF 
   47.843910 1  0CF00400x       Rx   d 8 FF FF FF C2 23 FF FF FF 
   47.853901 1  0CF00400x       Rx   d 8 FF FF FF 5B 23 FF FF FF 
   47.863911 1  0CF00400x       Rx   d 8 FF FF FF F5 22 FF FF FF 
   47.873906 1  0CF00400x       Rx   d 8 FF FF FF 8E 22 FF FF FF 
   47.883917 1  0CF00400x       Rx   d 8 FF FF FF 28 22 FF FF FF 
   47.893916 1  0CF00400x       Rx   d 8 FF FF FF C2 21 FF FF FF 
   47.903887 1  0CF00400x       Rx   d 8 FF FF FF 5D 21 FF FF FF 
   47.913898 1  0CF00400x       Rx   d 8 FF FF FF F8 20 FF FF FF 
   47.923896 1  0CF00400x       Rx   d 8 FF FF FF 93 20 FF FF FF 
   47.933899 1  0CF00400x       Rx   d 8 FF FF FF 2F 20 FF FF FF 
   47.943906 1  0CF00400x       Rx   d 8 FF FF FF CB 1F FF FF FF 
   47.953861 1  0CF00400x       Rx   d 8 FF FF FF 67 1F FF FF FF 
   47.963892 1  0CF00400x       Rx   d 8 FF FF FF 04 1F FF FF FF 
   47.973903 1  0CF00400x       Rx   d 8 FF FF FF A1 1E FF FF FF 
   47.983881 1  0CF00400x       Rx   d 8 FF FF FF 3E 1E FF FF FF 
   47.993896 1  0CF00400x       Rx   d 8 FF FF FF DC 1D FF FF FF 
   48.003851 1  0CF00400x       Rx   d 8 FF FF FF 7A 1D FF FF FF 
   48.013866 1  0CF00400x       Rx   d 8 FF FF FF 19 1D FF FF FF 
   48.023865 1  0CF00400x       Rx   d 8 FF FF FF B8 1C FF FF FF 
   48.033883 1  0CF00400x       Rx   d 8 FF FF FF 57 1C FF FF FF 
   48.043874 1  0CF00400x       Rx   d 8 FF FF FF F7 1B FF FF FF 
   48.053857 1  0CF00400x       Rx   d 8 FF FF FF 98 1B FF FF FF 
   48.063892 1  0CF00400x       Rx   d 8 FF FF FF 38 1B FF FF FF 
   48.073847 1  0CF00400x       Rx   d 8 FF FF FF D9 1A FF FF FF 
   48.083858 1  0CF00400x       Rx   d 8 FF FF FF 7B 1A FF FF FF 
   48.093884 1  0CF00400x       Rx   d 8 FF FF FF 1D 1A FF FF FF 
   48.103855 1  0CF00400x       Rx   d 8 FF FF FF BF 19 FF FF FF 
   48.113866 1  0CF00400x       Rx   d 8 FF FF FF 62 19 FF FF FF 
   48.123833 1  0CF00400x       Rx   d 8 FF FF FF 06 19 FF FF FF 
   48.133860 1  0CF00400x       Rx   d 8 FF FF FF AA 18 FF FF FF 
   48.143874 1  0CF00400x       Rx   d 8 FF FF FF 4E 18 FF FF FF 
   48.153877 1  0CF00400x       Rx   d 8 FF FF FF F3 17 FF FF FF 
   48.163844 1  0CF00400x       Rx   d 8 FF FF FF 98 17 FF FF FF 
   48.173863 1  0CF00400x       Rx   d 8 FF FF FF 3E 17 FF FF FF 
   48.183886 1  0CF00400x       Rx   d 8 FF FF FF E4 16 FF FF FF 
   48.193836 1  0CF00400x       Rx   d 8 FF FF FF 8B 16 FF FF FF 
   48.203855 1  0CF00400x       Rx   d 8 FF FF FF 32 16 FF FF FF 
   48.213818 1  0CF00400x       Rx   d 8 FF FF FF DA 15 FF FF FF 
   48.223841 1  0CF00400x       Rx   d 8 FF FF FF 82 15 FF FF FF 
   48.233864 1  0CF00400x       Rx   d 8 FF FF FF 2B 15 FF FF FF 
   48.243815 1  0CF00400x       Rx   d 8 FF FF FF D5 14 FF FF FF 
   48.253841 1  0CF00400x       Rx   d 8 FF FF FF 7F 14 FF FF FF 
   48.263852 1  0CF00400x       Rx   d 8 FF FF FF 29 14 FF FF FF 
   48.273859 1  0CF00400x       Rx   d 8 FF FF FF D4 13 FF FF FF 
   48.283822 1  0CF00400x       Rx   d 8 FF FF FF 80 13 FF FF FF 
   48.293837 1  0CF00400x       Rx   d 8 FF FF FF 2C 13 FF FF FF 
   48.303860 1  0CF00400x       Rx   d 8 FF FF FF D8 12 FF FF FF 
   48.313822 1  0CF00400x       Rx   d 8 FF FF FF 86 12 FF FF FF 
   48.323849 1  0CF00400x       Rx   d 8 FF FF FF 33 12 FF FF FF 
   48.333812 1  0CF00400x       Rx   d 8 FF FF FF E2 11 FF FF FF 
   48.343839 1  0CF00400x       Rx   d 8 FF FF FF 91 11 FF FF FF 
   48.353854 1  0CF00400x       Rx   d 8 FF FF FF 40 11 FF FF FF 
   48.363816 1  0CF00400x       Rx   d 8 FF FF FF F0 10 FF FF FF 
   48.373835 1  0CF00400x       Rx   d 8 FF FF FF A1 10 FF FF FF 
   48.383790 1  0CF00400x       Rx   d 8 FF FF FF 53 10 FF FF FF 
   48.393817 1  0CF00400x       Rx   d 8 FF FF FF 05 10 FF FF FF 
   48.403824 1  0CF00400x       Rx   d 8 FF FF FF B7 0F FF FF FF 
   48.413815 1  0CF00400x       Rx   d 8 FF FF FF 6A 0F FF FF FF 
   48.423801 1  0CF00400x       Rx   d 8 FF FF FF 1E 0F FF FF FF 
   48.433852 1  0CF00400x       Rx   d 8 FF FF FF D2 0E FF FF FF 
   48.443839 1  0CF00400x       Rx   d 8 FF FF FF 87 0E FF FF FF 
   48.453822 1  0CF00400x       Rx   d 8 FF FF FF 3D 0E FF FF FF 
   48.463820 1  0CF00400x       Rx   d 8 FF FF FF F3 0D FF FF FF 
   48.473807 1  0CF00400x       Rx   d 8 FF FF FF AA 0D FF FF FF 
   48.483794 1  0CF00400x       Rx   d 8 FF FF FF 62 0D FF FF FF 
   48.493833 1  0CF00400x       Rx   d 8 FF FF FF 1A 0D FF FF FF 
   48.503824 1  0CF00400x       Rx   d 8 FF FF FF D3 0C FF FF FF 
   48.513811 1  0CF00400x       Rx   d 8 FF FF FF 8D 0C FF FF FF 
   48.523774 1  0CF00400x       Rx   d 8 FF FF FF 47 0C FF FF FF 
   48.533824 1  0CF00400x       Rx   d 8 FF FF FF 02 0C FF FF FF 
   48.543806 1  0CF00400x       Rx   d 8 FF FF FF BE 0B FF FF FF 
   48.553837 1  0CF00400x       Rx   d 8 FF FF FF 7A 0B FF FF FF 
   48.563812 1  0CF00400x       Rx   d 8 FF FF FF 37 0B FF FF FF 
   48.573787 1  0CF00400x       Rx   d 8 FF FF FF F4 0A FF FF FF 
   48.583833 1  0CF00400x       Rx   d 8 FF FF FF B3 0A FF FF FF 
   48.593799 1  0CF00400x       Rx   d 8 FF FF FF 72 0A FF FF FF 
   48.603770 1  0CF00400x       Rx   d 8 FF FF FF 31 0A FF FF FF 
   48.613773 1  0CF00400x       Rx   d 8 FF FF FF F2 09 FF FF FF 
   48.623764 1  0CF00400x       Rx   d 8 FF FF FF B3 09 FF FF FF 
   48.633805 1  0CF00400x       Rx   d 8 FF FF FF 75 09 FF FF FF 
   48.643772 1  0CF00400x       Rx   d 8 FF FF FF 37 09 FF FF FF 
   48.653795 1  0CF00400x       Rx   d 8 FF FF FF FB 08 FF FF FF 
   48.663774 1  0CF00400x       Rx   d 8 FF FF FF BF 08 FF FF FF 
   48.673757 1  0CF00400x       Rx   d 8 FF FF FF 83 08 FF FF FF 
   48.683811 1  0CF00400x       Rx   d 8 FF FF FF 49 08 FF FF FF 
   48.693785 1  0CF00400x       Rx   d 8 FF FF FF 0F 08 FF FF FF 
   48.703772 1  0CF00400x       Rx   d 8 FF FF FF D6 07 FF FF FF 
   48.713763 1  0CF00400x       Rx   d 8 FF FF FF 9E 07 FF FF FF 
   48.723746 1  0CF00400x       Rx   d 8 FF FF FF 66 07 FF FF FF 
   48.733808 1  0CF00400x       Rx   d 8 FF FF FF 2F 07 FF FF FF 
   48.743802 1  0CF00400x       Rx   d 8 FF FF FF F9 06 FF FF FF 
   48.753801 1  0CF00400x       Rx   d 8 FF FF FF C4 06 FF FF FF 
   48.763772 1  0CF00400x       Rx   d 8 FF FF FF 8F 06 FF FF FF 
   48.773743 1  0CF00400x       Rx   d 8 FF FF FF 5B 06 FF FF FF 
   48.783782 1  0CF00400x       Rx   d 8 FF FF FF 28 06 FF FF FF 
   48.793776 1  0CF00400x       Rx   d 8 FF FF FF F6 05 FF FF FF 
   48.803762 1  0CF00400x       Rx   d 8 FF FF FF C4 05 FF FF FF 
   48.813737 1  0CF00400x       Rx   d 8 FF FF FF 94 05 FF FF FF 
   48.823780 1  0CF00400x       Rx   d 8 FF FF FF 64 05 FF FF FF 
   48.833751 1  0CF00400x       Rx   d 8 FF FF FF 34 05 FF FF FF 
   48.843742 1  0CF00400x       Rx   d 8 FF FF FF 06 05 FF FF FF 
   48.853783 1  0CF00400x       Rx   d 8 FF FF FF D8 04 FF FF FF 
   48.863762 1  0CF00400x       Rx   d 8 FF FF FF AB 04 FF FF FF 
   48.873733 1  0CF00400x       Rx   d 8 FF FF FF 7F 04 FF FF FF 
   48.883768 1  0CF00400x       Rx   d 8 FF FF FF 54 04 FF FF FF 
   48.893743 1  0CF00400x       Rx   d 8 FF FF FF 2A 04 FF FF FF 
   48.903773 1  0CF00400x       Rx   d 8 FF FF FF 00 04 FF FF FF 
   48.913743 1  0CF00400x       Rx   d 8 FF FF FF D7 03 FF FF FF 
   48.923718 1  0CF00400x       Rx   d 8 FF FF FF AF 03 FF FF FF 
   48.933761 1  0CF00400x       Rx   d 8 FF FF FF 88 03 FF FF FF 
   48.943736 1  0CF00400x       Rx   d 8 FF FF FF 61 03 FF FF FF 
   48.953771 1  0CF00400x       Rx   d 8 FF FF FF 3C 03 FF FF FF 
   48.963744 1  0CF00400x       Rx   d 8 FF FF FF 17 03 FF FF FF 
   48.973727 1  0CF00400x       Rx   d 8 FF FF FF F3 02 FF FF FF 
   48.983770 1  0CF00400x       Rx   d 8 FF FF FF D0 02 FF FF FF 
   48.993737 1  0CF00400x       Rx   d 8 FF FF FF AD 02 FF FF FF 
   49.003712 1  0CF00400x       Rx   d 8 FF FF FF 8C 02 FF FF FF 
   49.013701 1  0CF00400x       Rx   d 8 FF FF FF 6B 02 FF FF FF 
   49.023692 1  0CF00400x       Rx   d 8 FF FF FF 4B 02 FF FF FF 
   49.033711 1  0CF00400x       Rx   d 8 FF FF FF 2C 02 FF FF FF 
   49.043730 1  0CF00400x       Rx   d 8 FF FF FF 0E 02 FF FF FF 
   49.053697 1  0CF00400x       Rx   d 8 FF FF FF F0 01 FF FF FF 
   49.063711 1  0CF00400x       Rx   d 8 FF FF FF D4 01 FF FF FF 
   49.073737 1  0CF00400x       Rx   d 8 FF FF FF B8 01 FF FF FF 
   49.083688 1  0CF00400x       Rx   d 8 FF FF FF 9D 01 FF FF FF 
   49.093715 1  0CF00400x       Rx   d 8 FF FF FF 83 01 FF FF FF 
   49.103718 1  0CF00400x       Rx   d 8 FF FF FF 6A 01 FF FF FF 
   49.113737 1  0CF00400x       Rx   d 8 FF FF FF 51 01 FF FF FF 
   49.123694 1  0CF00400x       Rx   d 8 FF FF FF 3A 01 FF FF FF 
   49.133721 1  0CF00400x       Rx   d 8 FF FF FF 23 01 FF FF FF 
   49.143732 1  0CF00400x       Rx   d 8 FF FF FF 0D 01 FF FF FF 
   49.153727 1  0CF00400x       Rx   d 8 FF FF FF F8 00 FF FF FF 
   49.163690 1  0CF00400x       Rx   d 8 FF FF FF E4 00 FF FF FF 
   49.173709 1  0CF00400x       Rx   d 8 FF FF FF D0 00 FF FF FF 
   49.183734 1  0CF00400x       Rx   d 8 FF FF FF BE 00 FF FF FF 
   49.193685 1  0CF00400x       Rx   d 8 FF FF FF AC 00 FF FF FF 
   49.203700 1  0CF00400x       Rx   d 8 FF FF FF 9C 00 FF FF FF 
   49.213723 1  0CF00400x       Rx   d 8 FF FF FF 8C 00 FF FF FF 
   49.223670 1  0CF00400x       Rx   d 8 FF FF FF 7D 00 FF FF FF 
   49.233683 1  0CF00400x       Rx   d 8 FF FF FF 6E 00 FF FF FF 
   49.243698 1  0CF00400x       Rx   d 8 FF FF FF 61 00 FF FF FF 
   49.253653 1  0CF00400x       Rx   d 8 FF FF FF 55 00 FF FF FF 
   49.263676 1  0CF00400x       Rx   d 8 FF FF FF 49 00 FF FF FF 
   49.273679 1  0CF00400x       Rx   d 8 FF FF FF 3E 00 FF FF FF 
   49.283693 1  0CF00400x       Rx   d 8 FF FF FF 34 00 FF FF FF 
   49.293703 1  0CF00400x       Rx   d 8 FF FF FF 2B 00 FF FF FF 
   49.303658 1  0CF00400x       Rx   d 8 FF FF FF 23 00 FF FF FF 
   49.313685 1  0CF00400x       Rx   d 8 FF FF FF 1C 00 FF FF FF 
   49.323696 1  0CF00400x       Rx   d 8 FF FF FF 15 00 FF FF FF 
   49.333659 1  0CF00400x       Rx   d 8 FF FF FF 10 00 FF FF FF 
   49.343676 1  0CF00400x       Rx   d 8 FF FF FF 0B 00 FF FF FF 
   49.353699 1  0CF00400x       Rx   d 8 FF FF FF 07 00 FF FF FF 
   49.363662 1  0CF00400x       Rx   d 8 FF FF FF 04 00 FF FF FF 
   49.373669 1  0CF00400x       Rx   d 8 FF FF FF 02 00 FF FF FF 
   49.383692 1  0CF00400x       Rx   d 8 FF FF FF 00 00 FF FF FF 
   49.393698 1  0CF00400x       Rx   d 8 FF FF FF 00 00 FF FF FF 
   49.403672 1  0CF00400x       Rx   d 8 FF FF FF 00 00 FF FF FF 
   49.413627 1  0CF00400x       Rx   d 8 FF FF FF 02 00 FF FF FF 
   49.423658 1  0CF00400x       Rx   d 8 FF FF FF 04 00 FF FF FF 
   49.433669 1  0CF00400x       Rx   d 8 FF FF FF 07 00 FF FF FF 
   49.443684 1  0CF00400x       Rx   d 8 FF FF FF 0B 00 FF FF FF 
   49.453645 1  0CF00400x       Rx   d 8 FF FF FF 10 00 FF FF FF 
   49.463652 1  0CF00400x       Rx   d 8 FF FF FF 15 00 FF FF FF 
   49.473683 1  0CF00400x       Rx   d 8 FF FF FF 1C 00 FF FF FF 
   49.483630 1  0CF00400x       Rx   d 8 FF FF FF 23 00 FF FF FF 
   49.493649 1  0CF00400x       Rx   d 8 FF FF FF 2B 00 FF FF FF 
   49.503674 1  0CF00400x       Rx   d 8 FF FF FF 34 00 FF FF FF 
   49.513637 1  0CF00400x       Rx   d 8 FF FF FF 3E 00 FF FF FF 
   49.523620 1  0CF00400x       Rx   d 8 FF FF FF 49 00 FF FF FF 
   49.533635 1  0CF00400x       Rx   d 8 FF FF FF 55 00 FF FF FF 
   49.543654 1  0CF00400x       Rx   d 8 FF FF FF 61 00 FF FF FF 
   49.553612 1  0CF00400x       Rx   d 8 FF FF FF 6E 00 FF FF FF 
   49.563635 1  0CF00400x       Rx   d 8 FF FF FF 7D 00 FF FF FF 
   49.573661 1  0CF00400x       Rx   d 8 FF FF FF 8C 00 FF FF FF 
   49.583612 1  0CF00400x       Rx   d 8 FF FF FF 9C 00 FF FF FF 
   49.593635 1  0CF00400x       Rx   d 8 FF FF FF AC 00 FF FF FF 
   49.603658 1  0CF00400x       Rx   d 8 FF FF FF BE 00 FF FF FF 
   49.613607 1  0CF00400x       Rx   d 8 FF FF FF D0 00 FF FF FF 
   49.623622 1  0CF00400x       Rx   d 8 FF FF FF E4 00 FF FF FF 
   49.633637 1  0CF00400x       Rx   d 8 FF FF FF F8 00 FF FF FF 
   49.643592 1  0CF00400x       Rx   d 8 FF FF FF 0D 01 FF FF FF 
   49.653655 1  0CF00400x       Rx   d 8 FF FF FF 23 01 FF FF FF 
   49.663602 1  0CF00400x       Rx   d 8 FF FF FF 3A 01 FF FF FF 
   49.673623 1  0CF00400x       Rx   d 8 FF FF FF 51 01 FF FF FF 
   49.683642 1  0CF00400x       Rx   d 8 FF FF FF 6A 01 FF FF FF 
   49.693609 1  0CF00400x       Rx   d 8 FF FF FF 83 01 FF FF FF 
   49.703620 1  0CF00400x       Rx   d 8 FF FF FF 9D 01 FF FF FF 
   49.713646 1  0CF00400x       Rx   d 8 FF FF FF B8 01 FF FF FF 
   49.723596 1  0CF00400x       Rx   d 8 FF FF FF D4 01 FF FF FF 
   49.733619 1  0CF00400x       Rx   d 8 FF FF FF F0 01 FF FF FF 
